  76.843376 2  1CEFFA03x    Rx   d 8 AD 1E 5D 0A FC 01 F7 01
  76.843536 1  18EF00D1x    Rx   d 8 F0 0D FF FF FF FF FF FF
  76.843664 2  1CEFFA03x    Rx   d 8 AD 1F 26 0B 00 00 12 00
  76.843824 1  18FFFED1x    Rx   d 8 AA FF FF FF FF FF FF FF
  76.843952 2  1CEFFA03x    Rx   d 8 AD 20 E9 00 32 00 00 A2
   76.84424 2  1CEFFA03x    Rx   d 8 AD 21 00 FF 00 FF FF FF
  76.844496 2  1CEFFA03x    Rx   d 8 AD 29 DA 0A A2 03 A2 03
  76.846608 2  1CE6EA26x    Rx   d 8 A8 40 04 00 E7 02 00 00
  76.846768 1  0CF00426x    Rx   d 8 F1 FF D5 E0 44 FF F4 FF
  76.847088 1  0CF00426x    Rx   d 8 F1 FF D5 E0 44 FF F4 FF
  76.847856 2  18FFFA31x    Rx   d 8 01 70 00 00 00 00 FF FF
  76.848144 2  08FFF831x    Rx   d 8 16 FF FF FF F0 FF FF FF
  76.848432 2  14FFFAEAx    Rx   d 8 02 3A C5 FF FF FF FF FF
   76.84872 2  0CF00400x    Rx   d 8 F1 FF D4 CC 44 FF F4 FF
  76.848976 2  0CF02300x    Rx   d 8 CE 23 F2 FF FF 6F FF FF
  76.849264 2  08FEF103x    Rx   d 8 FF A9 07 CF FF FF FF FF
  76.849552 2  18FFFA31x    Rx   d 8 01 71 00 00 00 00 0F FF
   76.84984 2  18FFFB03x    Rx   d 8 FB 0B 80 12 E1 77 FF FF
   76.85016 2  18FFFFEAx    Rx   d 8 F7 FF FF FE FF FF FF FF
  76.850416 2  08FFFBEAx    Rx   d 8 FB 02 00 E8 02 FF FF FF
  76.850704 2  18E726EAx    Rx   d 8 A8 40 04 FF E9 02 00 00
  76.850992 2  1CEFFA03x    Rx   d 8 AD 01 00 00 22 00 4F 11
   76.85128 2  1CEFFA03x    Rx   d 8 AD 02 3C 2A 3C 2A 3E 2A
  76.851568 2  18EFFF31x    Rx   d 8 F4 19 FF FF FF FF FF FF
  76.851824 2  1CEFFA03x    Rx   d 8 AD 03 0B 2A 0E 27 3C 2A
  76.852112 2  14FFFA5Bx    Rx   d 8 00 20 F0 6A FF FF FF FF
    76.8524 2  08FFFBEAx    Rx   d 8 FB 02 12 00 00 FF FF FF
  76.852688 2  18EFFA26x    Rx   d 8 AD 08 1F 50 57 FF FF 03
  76.852976 2  18FFFB5Bx    Rx   d 8 00 05 E1 FF FF FF FF FF
  76.853264 2  1CEFFA03x    Rx   d 8 AD 29 DA 0A A2 03 A2 03
  76.853552 2  1CFFFAEBx    Rx   d 8 00 2D 0D FF FF FF FF FF
   76.85384 2  1DEFFF28x    Rx   d 8 05 EB 4F FD FF FF FF FF
  76.854288 2  18FFF886x    Rx   d 8 9B 00 7D 3E 64 80 1A 00
  76.854448 1  18FFFF1Cx    Rx   d 8 E0 FD 0A F5 11 FF FF F4
  76.855408 2  14FFFA86x    Rx   d 8 01 54 0F 1C F3 FF FF FF
  76.856304 2  1CE6EA26x    Rx   d 8 A8 40 04 00 E9 02 00 00
  76.856592 2  14EFFFEBx    Rx   d 8 64 4A 45 04 8F 89 FE FF
  76.857328 1  0CF00426x    Rx   d 8 F1 FF D4 CC 44 FF F4 FF
  76.857648 1  08FEF126x    Rx   d 8 FF A9 07 CF FF FF FF FF
     76.858 2  18EFFF00x    Rx   d 8 64 10 0F 0F B7 33 F8 3C
  76.858288 2  0CEFFF00x    Rx   d 8 64 06 F4 81 C0 FA 9A 00
  76.858608 2  0CF00300x    Rx   d 8 FF FE 5C FF FF FF C0 FF
  76.858864 2  14FFFB5Bx    Rx   d 8 01 15 B0 B3 FF FF FF FF
  76.859248 2  18E726EAx    Rx   d 8 A8 40 04 FF EA 02 00 00
  76.859536 2  0CF00400x    Rx   d 8 F1 FF D4 D4 44 FF F4 FF
  76.859952 2  1CEFFA03x    Rx   d 8 AD 00 8D D9 D9 AA FA FA
   76.86024 2  1CEFFA03x    Rx   d 8 AD 01 00 00 22 00 4F 11
  76.860528 2  1CEFFA03x    Rx   d 8 AD 02 3C 2A 3C 2A 3E 2A
  76.861072 2  1CEFFA03x    Rx   d 8 AD 03 0B 2A 0E 27 3C 2A
  76.861584 2  18EFFF31x    Rx   d 8 F1 07 CC CC 00 00 CC CC
  76.861744 1  0CFFF826x    Rx   d 8 9B 00 7D 3E 64 80 1A 00
  76.861872 2  18EFFF31x    Rx   d 8 F0 02 CC 00 30 F0 FF FF
   76.86216 2  1CEFFA03x    Rx   d 8 AD 04 DF 26 10 27 00 04
  76.862448 2  0CF0045Bx    Rx   d 8 F1 FF D4 D4 44 FF F4 FF
  76.862704 2  1CEFFA03x    Rx   d 8 AD 05 28 27 10 27 10 27
   76.86328 1  0CFFFECCx    Rx   d 8 8B FF FF FF FF FF FF FF
  76.863344 2  1CEFFA03x    Rx   d 8 AD 06 7D 7D 00 7D D9 28
  76.863568 1  0CEF00CCx    Rx   d 8 6E FF FF FF FF FF FF FF
  76.863856 1  0CFFFED1x    Rx   d 8 8B FF FF FF FF FF FF FF
  76.863888 2  1CEFFA03x    Rx   d 8 AD 07 FC 15 51 8D 7D 64
  76.864144 1  0CEF00D1x    Rx   d 8 6E FF FF FF FF FF FF FF
  76.864464 2  1CEFFA03x    Rx   d 8 AD 08 8D 04 FF FF FF FF
  76.865008 2  1CEFFA03x    Rx   d 8 AD 09 64 8E 00 8C 67 94
  76.865552 2  1CEFFA03x    Rx   d 8 AD 0A FF FF A2 A2 00 C4
   76.86584 2  1CEFFA03x    Rx   d 8 AD 0B FF FF 00 73 FF FF
  76.866128 2  1CEFFA03x    Rx   d 8 AD 0C 6B 20 FF DD 9C 10
  76.866384 2  1CEFFA03x    Rx   d 8 AD 0D E9 14 3A 12 FF FF
  76.866672 2  1CEFFA03x    Rx   d 8 AD 0F 00 FF 15 00 00 00
   76.86696 2  1CE6EA26x    Rx   d 8 A8 40 04 00 EA 02 00 00
  76.867216 2  1CEFFA03x    Rx   d 8 AD 12 74 A2 00 80 CE 29
  76.867504 2  1CEFFA03x    Rx   d 8 AD 13 00 23 00 00 00 00
  76.867792 2  1CEFFA03x    Rx   d 8 AD 14 B8 C8 00 4F 11 28
   76.86808 2  0CFF1B31x    Rx   d 8 27 BE AE 00 90 A7 00 00
  76.868176 1  0CF00426x    Rx   d 8 F1 FF D4 D4 44 FF F4 FF
  76.868368 2  0CFFF331x    Rx   d 8 31 C3 2B FF FF FF FF F9
  76.868624 2  14FFFEEAx    Rx   d 8 47 8E 01 69 00 6D 7D FF
  76.868912 2  14FFFEEAx    Rx   d 8 43 EA 02 00 00 FF FF FF
    76.8692 2  1CEFFA03x    Rx   d 8 AD 15 40 00 04 06 FF FF
  76.869488 2  14FFFFEAx    Rx   d 8 16 FF 62 66 00 00 DE 38
  76.869776 2  18E726EAx    Rx   d 8 A8 40 04 FF EC 02 00 00
  76.870032 2  18EFFA26x    Rx   d 8 AD 4A 69 01 00 00 4A 02
   76.87032 2  1CEFFA03x    Rx   d 8 AD 16 0A 3C 7C 04 FE 02
  76.870608 2  1CEFFA03x    Rx   d 8 AD 1A B1 02 00 00 00 00
  76.870896 2  1CEFFA03x    Rx   d 8 AD 1B 01 00 04 00 01 00
  76.871184 2  0CF00400x    Rx   d 8 F1 FF D5 B2 44 FF F4 FF
  76.871472 2  1CEFFA03x    Rx   d 8 AD 1C 00 00 00 00 01 00
   76.87176 2  1CEFFA03x    Rx   d 8 AD 1D 15 00 00 00 02 00
  76.872016 2  1CEFFA03x    Rx   d 8 AD 1E 6C 0A F7 01 F2 01
  76.872304 2  1CEFFA5Bx    Rx   d 8 AD 04 E9 35 18 14 81 13
   76.87256 2  0CFF18EBx    Rx   d 8 80 2C 00 01 40 07 01 FF
  76.872848 2  08EFFF5Bx    Rx   d 8 64 57 2F FF FF 00 00 FF
  76.873136 2  18E726EBx    Rx   d 8 A8 23 05 FF 01 00 00 00
  76.873424 2  1CEFFA03x    Rx   d 8 AD 1F 26 0B 00 00 12 00
   76.87368 2  1CEFFA5Bx    Rx   d 8 AD 05 56 35 5D 35 8D 35
  76.873968 2  1CEFFA03x    Rx   d 8 AD 20 E9 00 32 00 00 A2
  76.874256 2  1CEFFA5Bx    Rx   d 8 AD 06 86 35 56 35 00 00
  76.874544 2  1CEFFA03x    Rx   d 8 AD 21 00 FF 00 FF FF FF
    76.8748 2  1CEFFA5Bx    Rx   d 8 AD 07 D4 35 33 35 00 00
   76.87512 2  18FFFA26x    Rx   d 8 00 24 00 FF FF FF FF FF
  76.875376 2  1CEFFA03x    Rx   d 8 AD 29 DA 0A A2 03 A2 03
  76.875664 2  1CEFFA03x    Rx   d 8 AD 01 00 00 22 00 50 11
  76.875952 2  1CEFFA03x    Rx   d 8 AD 02 3C 2A 3C 2A 3E 2A
  76.876208 2  0CACFF13x    Rx   d 8 86 7D 14 1F C0 FF FF FF
  76.876496 2  18FFF413x    Rx   d 8 63 FA 5B 07 53 E1 FF FF
  76.876784 2  1CE6EA26x    Rx   d 8 A8 40 04 00 EC 02 00 00
  76.877072 2  1CEFFA03x    Rx   d 8 AD 03 0B 2A 0E 27 3C 2A
  76.877328 2  1CE6EB26x    Rx   d 8 A8 23 05 00 01 00 00 00
  76.877424 1  0CF00426x    Rx   d 8 F1 FF D4 D4 44 FF F4 FF
  76.877616 2  1CEFFA03x    Rx   d 8 AD 29 DA 0A A2 03 A2 03
  76.877712 1  0CF00426x    Rx   d 8 F1 FF D5 B2 44 FF F4 FF
  76.878064 2  0CFE4831x    Rx   d 8 FF FF FF FF FF FF FF F7
  76.878576 2  0CEFFF00x    Rx   d 8 64 06 F9 81 BF FA 9A 00
  76.878864 2  0CF00300x    Rx   d 8 FF FE 5D FF FF FF BF FF
  76.879152 2  0CF00400x    Rx   d 8 F1 FF D5 BE 44 FF F4 FF
  76.879408 2  18E726EAx    Rx   d 8 A8 40 04 FF ED 02 00 00
  76.879696 2  1CE6EB26x    Rx   d 8 05 23 05 FF 04 00 00 00
  76.879984 2  18FEEF00x    Rx   d 8 04 FF FF 5A 00 FE 29 FA
  76.880272 2  18E726EBx    Rx   d 8 05 23 05 FF 04 00 00 00
   76.88056 2  1CEFFA03x    Rx   d 8 AD 01 00 00 22 00 50 11
  76.880816 2  1CEFFA03x    Rx   d 8 AD 02 3C 2A 3C 2A 3E 2A
  76.881104 2  1CEFFA03x    Rx   d 8 AD 03 0B 2A 0E 27 3C 2A
   76.88136 2  1CEFFA03x    Rx   d 8 AD 12 74 A2 00 80 CE 29
  76.881648 2  1CEFFA03x    Rx   d 8 AD 1B 01 00 04 00 01 00
  76.881872 1  0CACFF26x    Rx   d 8 86 7D 14 1F C0 FF FF FF
  76.881936 2  1CEFFA03x    Rx   d 8 AD 1D 15 00 00 00 02 00
  76.882192 1  18FFF426x    Rx   d 8 63 FA 5B 07 53 E1 FF FF
  76.882224 2  1CEFFA03x    Rx   d 8 AD 1E 67 0A FC 01 F7 01
   76.88248 2  0CF0045Bx    Rx   d 8 F1 FF D5 BE 44 FF F4 FF
  76.882768 2  18EFFA26x    Rx   d 8 AD 6A 02 04 A9 07 FF FF
  76.883056 2  0CFFEC5Bx    Rx   d 8 FF FF FF FF FF FF FF FF
  76.883344 2  18EFFA26x    Rx   d 8 AD 6D EB 00 FF FF FF FF
  76.883408 1  0CF00426x    Rx   d 8 F1 FF D5 BE 44 FF F4 FF
  76.883632 2  08FFFA5Bx    Rx   d 8 00 22 05 F3 0D 0A FF FF
   76.88392 2  18EFFA26x    Rx   d 8 AD 52 6A 07 60 07 FC 06
  76.884208 2  18FE475Bx    Rx   d 8 FF FF FF FF FF FF FF FF
  76.884464 2  18EFFA26x    Rx   d 8 AD 53 40 06 96 05 84 00
  76.884752 2  18FFF486x    Rx   d 8 6C FF FF FF FF FF FF FF
   76.88504 2  18EFFA26x    Rx   d 8 AD 56 56 00 50 00 7B 01
   76.88536 2  1CEFFA03x    Rx   d 8 AD 1F 2B 0B 00 00 12 00
  76.885584 2  18EFFA26x    Rx   d 8 AD 5D 9D 00 7A 54 00 03
  76.885872 2  10FFFA86x    Rx   d 8 00 2B 01 FF FF FF FF FF
   76.88616 2  18EFFA26x    Rx   d 8 AD 5E 9C 00 7A 54 00 03
  76.886224 1  18FFFFD2x    Rx   d 8 27 00 CD FF FF FF FF FF
  76.886448 2  18EFFF06x    Rx   d 8 F8 20 F2 FF FF FF FF FF
  76.886736 2  18EFFA26x    Rx   d 8 AD 5F 86 00 9A 55 01 02
  76.887024 2  18FFFE31x    Rx   d 8 FD FB FB FB FB FF FF FF
  76.887312 2  18EFFA26x    Rx   d 8 AD 60 6A 00 BA 56 01 03
   76.88744 1  0CF00426x    Rx   d 8 F1 FF D5 BE 44 FF F4 FF
  76.887568 2  1CEFFA03x    Rx   d 8 AD 20 E9 00 32 00 00 A2
  76.887856 2  18EFFA26x    Rx   d 8 AD 61 57 00 BA 56 01 06
  76.888144 2  18FFF413x    Rx   d 8 5F 40 64 C4 89 62 FF FF
  76.888432 2  18EFFA26x    Rx   d 8 AD 58 98 00 00 00 33 00
  76.888688 2  1CEFFA03x    Rx   d 8 AD 21 00 FF 00 FF FF FF
  76.888976 2  18EFFA26x    Rx   d 8 AD 59 97 00 00 00 CE 00
  76.889264 2  1CEFFA03x    Rx   d 8 AD 29 D5 0A A3 03 A3 03
   76.88952 2  0CF00400x    Rx   d 8 F1 FF D5 9E 44 FF F4 FF
  76.889808 2  18EFFA26x    Rx   d 8 AD 5A 84 00 00 00 72 00
  76.890096 2  1CEFFA03x    Rx   d 8 AD 01 00 00 22 00 4F 11
  76.890384 2  18EFFA26x    Rx   d 8 AD 5B 67 00 00 00 32 00
  76.890672 2  08FFFBEAx    Rx   d 8 FB 02 00 EB 02 FF FF FF
  76.890928 2  18EFFA26x    Rx   d 8 AD 5C 52 00 00 00 13 00
  76.891216 2  18FECA64x    Rx   d 8 00 FF 00 00 00 00 FF FF
  76.891504 2  18EFFA26x    Rx   d 8 AD 62 04 00 38 00 6F 00
  76.891792 2  18EFFFD4x    Rx   d 8 EA 00 37 C8 BD B0 D7 4A
  76.892048 2  18EFFA26x    Rx   d 8 AD 63 11 00 E3 00 C2 01
  76.892336 2  1CEFFA03x    Rx   d 8 AD 02 3C 2A 3C 2A 3F 2A
  76.892624 2  08FEF15Bx    Rx   d 8 FF A9 07 CF FF FF FF FF
  76.892912 2  14EFFF5Bx    Rx   d 8 64 53 FF FF 40 03 66 F1
  76.893168 2  08FFFA5Bx    Rx   d 8 00 21 1E 2F 00 2D FF FE
  76.893456 2  18EFFA26x    Rx   d 8 AD 64 0A 00 46 01 C2 01
  76.893744 2  1CEFFA03x    Rx   d 8 AD 03 0B 2A 0D 27 3C 2A
     76.894 2  18EFFA26x    Rx   d 8 AD 65 0F 00 81 01 C2 01
  76.894288 2  1CEFFA03x    Rx   d 8 AD 29 DA 0A A2 03 A2 03
  76.894544 2  18EFFA26x    Rx   d 8 AD 66 1E 00 9B 01 CC 01
  76.894864 2  18EFFA26x    Rx   d 8 AD 6B FF FF 7F 01 90 01
  76.895184 2  18EFFA26x    Rx   d 8 AD 47 D4 00 00 00 00 00
  76.895472 2  18EFFA26x    Rx   d 8 AD 49 F1 7C 04 04 42 05
   76.89576 2  18EFFA26x    Rx   d 8 AD 4B 9E 04 F4 01 43 00
   76.89608 2  18EFFA26x    Rx   d 8 AD 4C 32 00 96 00 9E 00
  76.896368 2  18EFFA26x    Rx   d 8 AD 4D FF 00 14 00 06 00
  76.896656 2  18EFFA26x    Rx   d 8 AD 1E DE 07 D4 07 72 00
  76.896944 2  08EFFFEBx    Rx   d 8 64 48 FF FF FF FD FF FF
  76.897232 2  14EFFFEBx    Rx   d 8 64 45 A1 01 00 00 A3 01
  76.897488 2  18EFFA26x    Rx   d 8 AD 72 FA 07 03 10 D9 07
  76.897808 2  18EFFA26x    Rx   d 8 AD 73 4E 01 14 00 3B 00
  76.898096 2  18FFFF31x    Rx   d 8 87 FF 00 FF FF FF FF FF
  76.898352 2  10FFFF31x    Rx   d 8 EA FF A3 61 CB 4D 6F 0F
   76.89864 2  0CEFFF00x    Rx   d 8 64 06 04 82 BF FA 9A 00
  76.898928 2  0CF00300x    Rx   d 8 FF FE 5C FF FF FF BF FF
  76.899152 1  18EFFFD3x    Rx   d 8 AD 01 00 00 00 00 00 00
  76.899216 2  0CF00400x    Rx   d 8 F1 FF D5 C4 44 FF F4 FF
   76.89944 1  18EFFFD3x    Rx   d 8 AD 02 11 01 01 98 0A 2A
  76.899472 2  18EFFA26x    Rx   d 8 AD 8F 2F 03 53 07 FF FF
  76.899696 1  18EFFFD3x    Rx   d 8 AD 03 0F 00 A8 71 1F 66
   76.89976 2  0CF02300x    Rx   d 8 CE 23 F2 FF FF 6F FF FF
  76.899984 1  18EFFFD3x    Rx   d 8 AD 04 4A 01 00 00 C6 01
  76.900048 2  1CE6EA26x    Rx   d 8 A8 40 04 00 ED 02 00 00
  76.900272 1  18EFFFD3x    Rx   d 8 AD 05 45 7B 01 0E 41 7C
  76.900336 2  1CEFFA03x    Rx   d 8 AD 00 8D D9 D9 AA FA FA
  76.900528 1  18EFFFD3x    Rx   d 8 AD 06 DC 73 06 64 00 13
  76.900592 2  18E726EAx    Rx   d 8 A8 40 04 FF EB 02 00 00
  76.900816 1  18EFFFD3x    Rx   d 8 AD 07 40 01 F4 EF FF FF
   76.90088 2  18FFFA26x    Rx   d 8 07 00 06 06 1E 09 A7 07
  76.901104 1  0CF00426x    Rx   d 8 F1 FF D5 9E 44 FF F4 FF
  76.901168 2  1CEFFA03x    Rx   d 8 AD 01 00 00 22 00 4F 11
  76.901392 1  18EFFFD3x    Rx   d 8 AD 08 01 F0 CF 00 D2 29
  76.901456 2  1CEFFA03x    Rx   d 8 AD 02 3C 2A 3C 2A 40 2A
  76.901648 1  18EFFFD3x    Rx   d 8 AD 09 74 2F DC 73 10 27
  76.901712 2  1CEFFA03x    Rx   d 8 AD 03 0A 2A 0C 27 3C 2A
  76.901936 1  08FEF126x    Rx   d 8 FF A9 07 CF FF FF FF FF
     76.902 2  1CEFFA03x    Rx   d 8 AD 04 DE 26 10 27 01 04
  76.902192 1  18EFFFD3x    Rx   d 8 AD 0A 10 27 59 2F 93 26
  76.902288 2  1CEFFA03x    Rx   d 8 AD 05 29 27 10 27 10 27
   76.90248 1  08EFFF26x    Rx   d 8 64 48 FF FF FF FD FF FF
  76.902544 2  0CF0045Bx    Rx   d 8 F1 FF D5 C4 44 FF F4 FF
  76.902768 1  18EFFFD3x    Rx   d 8 AD 0B 10 27 3C 2B 1E 30
  76.902832 2  10FD925Bx    Rx   d 8 F4 FF FF FF FF FF FF FF
  76.903024 1  0CF00426x    Rx   d 8 F1 FF D5 C4 44 FF F4 FF
   76.90312 2  1CEFFA03x    Rx   d 8 AD 07 FC 15 51 8D 7D 64
  76.903344 1  0CFFFECCx    Rx   d 8 8B FF FF FF FF FF FF FF
  76.903408 2  1CEFFA03x    Rx   d 8 AD 0A FF FF A1 A2 00 C4
  76.903632 1  0CEF00CCx    Rx   d 8 6E FF FF FF FF FF FF FF
  76.903696 2  1CEFFA03x    Rx   d 8 AD 0B FF FF 00 72 FF FF
   76.90392 1  0CFFFED1x    Rx   d 8 8B FF FF FF FF FF FF FF
  76.903952 2  1CEFFA03x    Rx   d 8 AD 12 88 A2 00 80 CD 29
  76.904208 1  0CEF00D1x    Rx   d 8 6E FF FF FF FF FF FF FF
   76.90424 2  1CEFFA03x    Rx   d 8 AD 13 04 23 00 00 00 00
  76.904464 1  18EFFF26x    Rx   d 8 64 53 FF FF 40 03 66 F1
  76.904496 2  1CEFFA03x    Rx   d 8 AD 14 B8 C8 00 4F 11 28
  76.904752 1  18EFFFD3x    Rx   d 8 AD 0C 89 21 01 00 01 00
  76.904816 2  1CEFFA03x    Rx   d 8 AD 16 0A 3C 7C 04 00 03
   76.90504 1  18EFFF26x    Rx   d 8 64 45 A1 01 00 00 A3 01
  76.905072 2  1CEFFA03x    Rx   d 8 AD 1B 01 00 04 00 01 00
  76.905328 1  18EFFFD3x    Rx   d 8 AD 0D 40 0F 00 00 01 00
  76.905488 2  1CEFFA03x    Rx   d 8 AD 1D 15 00 00 00 02 00
  76.905616 1  18EFFFD3x    Rx   d 8 AD 0E 1F FF 03 00 06 02
  76.905776 2  1CEFFA03x    Rx   d 8 AD 1E 54 0A FC 01 F2 01
  76.905872 1  18EFFFD3x    Rx   d 8 AD 0F 73 02 00 00 06 02
  76.906064 2  1CEFFA03x    Rx   d 8 AD 1F 26 0B 00 00 12 00
  76.906352 2  1CEFFA03x    Rx   d 8 AD 20 E9 00 32 00 00 A2
  76.906672 2  08FFFAAEx    Rx   d 8 01 58 00 FF FF FF FF FF
   76.90696 2  10FFFDEBx    Rx   d 8 00 05 11 10 00 00 00 FF
  76.907216 2  18EFFFEBx    Rx   d 8 64 90 04 00 00 00 FF FF
  76.907536 2  10FFFDEBx    Rx   d 8 00 06 FF FF FF FF FF FF
  76.907824 2  18EFFFEBx    Rx   d 8 64 91 07 00 03 00 03 00
   76.90808 2  0CFFF331x    Rx   d 8 31 C6 2B FF FF FF FF F9
  76.908368 2  1CE6EA26x    Rx   d 8 A8 40 04 00 EB 02 00 00
  76.908656 2  1CEFFA03x    Rx   d 8 AD 21 00 FF 00 FF FF FF
  76.908944 2  14EFFFEAx    Rx   d 8 F4 16 F0 FF FF FF FF FF
  76.909232 2  1CEFFA03x    Rx   d 8 AD 29 DA 0A A2 03 A2 03
  76.909488 2  0CF00400x    Rx   d 8 F1 FF D5 C4 44 FF F4 FF
  76.909776 2  18FECA65x    Rx   d 8 00 FF 00 00 00 00 FF FF
  76.910064 2  18FEDF00x    Rx   d 8 86 C0 44 FF FF FF FF 05
  76.910352 2  1CEFFA03x    Rx   d 8 AD 01 00 00 22 00 4F 11
   76.91064 2  18E726EAx    Rx   d 8 A8 40 04 FF EA 02 00 00
  76.910928 2  18EFFA26x    Rx   d 8 AD 40 05 1B 00 07 00 01
  76.911184 2  1CEFFA03x    Rx   d 8 AD 02 3C 2A 3C 2A 43 2A
  76.911248 1  0CF00426x    Rx   d 8 F1 FF D5 C4 44 FF F4 FF
  76.911472 2  1CEFFA03x    Rx   d 8 AD 03 09 2A 09 27 3C 2A
   76.91176 2  1CEFFA03x    Rx   d 8 AD 17 81 04 7F 04 00 00
  76.912016 2  1CEFFA03x    Rx   d 8 AD 29 D5 0A A2 03 A3 03
   76.91256 2  1CE6EA26x    Rx   d 8 A8 40 04 00 EA 02 00 00
  76.912784 1  10FD9226x    Rx   d 8 F4 FF FF FF FF FF FF FF
  76.912848 2  0CFF18EBx    Rx   d 8 80 17 00 02 40 07 02 FF
  76.913072 1  0CF00426x    Rx   d 8 F1 FF D5 C4 44 FF F4 FF
  76.913136 2  18E726EAx    Rx   d 8 A8 40 04 FF E9 02 00 00
  76.913424 2  18E726EBx    Rx   d 8 A8 23 05 FF 01 00 00 00
  76.914064 2  18FFFA26x    Rx   d 8 00 5A 8A 01 B9 00 FF FF
  76.914896 1  10FF641Cx    Rx   d 8 80 17 1C 01 03 00 80 A4
  76.915184 1  0CFEF31Cx    Rx   d 8 96 8C 00 96 C1 54 CB 47
  76.915408 2  18FFF831x    Rx   d 8 28 11 FF FF FF FF FF FF
   76.91544 1  10FF641Cx    Rx   d 8 81 1D 3B 3C 75 80 00 83
  76.915696 2  18FFFF31x    Rx   d 8 06 FF FF FF FF FF FF 3F
  76.915728 1  0CFEE61Cx    Rx   d 8 2E 34 14 0A 28 26 FF F9
  76.916016 1  10FF641Cx    Rx   d 8 82 6C 07 80 80 04 00 00
  76.916272 1  0CFEE81Cx    Rx   d 8 D3 2C 69 07 C4 63 94 54
   76.91656 1  10FF641Cx    Rx   d 8 83 00 E8 28 DE 03 FF FF
  76.916624 2  08EFFFEBx    Rx   d 8 F8 0B 5E 01 FF FF F1 07
  76.916848 1  0CFFFF1Cx    Rx   d 8 51 03 02 20 08 05 06 04
  76.916912 2  14EFFFEBx    Rx   d 8 64 46 8F 01 FF FF 00 00
  76.917168 2  1CE6EA26x    Rx   d 8 A8 40 04 00 E9 02 00 00
  76.917424 1  0CFFFF1Cx    Rx   d 8 52 0E 80 00 CB 65 1B 5E
  76.917744 2  1CE6EB26x    Rx   d 8 A8 23 05 00 01 00 00 00
     76.918 1  0CFFFF1Cx    Rx   d 8 53 0D A7 5A 10 55 41 54
  76.918352 1  0CFFFF1Cx    Rx   d 8 A0 D4 C3 C4 02 FF FF FF
  76.918384 2  1CE6EB26x    Rx   d 8 05 23 05 FF 04 00 00 00
   76.91864 1  0CFFFF1Cx    Rx   d 8 54 D4 00 0A 6A 00 BC 51
  76.918704 2  0CFF1B31x    Rx   d 8 27 BE AE 00 A0 FE 00 00
   76.91896 2  18EFFA26x    Rx   d 8 AD 14 00 00 00 00 FF FF
  76.919216 1  18FFFAD3x    Rx   d 8 00 31 07 FF FF FF FF FF
  76.919504 2  08FFFAEAx    Rx   d 8 00 32 F2 00 00 FF FF FF
   76.91976 1  0CFFFF1Cx    Rx   d 8 E3 FF FF FF FC 02 FF 51
  76.920048 2  08FFFAADx    Rx   d 8 01 58 00 FF FF FF FF FF
  76.920304 1  0CFFFF1Cx    Rx   d 8 E1 DF C9 63 16 64 FF 22
  76.920592 2  0CEFFF00x    Rx   d 8 64 06 01 82 C0 FA 9A 00
   76.92088 2  0CF00300x    Rx   d 8 FF FE 5B FF FF FF C0 FF
  76.921168 2  0CF00400x    Rx   d 8 F1 FF D5 E2 44 FF F4 FF
  76.921456 2  18E726EAx    Rx   d 8 A8 40 04 FF E8 02 00 00
  76.921712 2  18E726EBx    Rx   d 8 05 23 05 FF 04 00 00 00
  76.922032 2  18FEF200x    Rx   d 8 73 05 FF FF FF FF FF FF
  76.922288 2  18FFFB26x    Rx   d 8 F9 01 02 B3 07 FF FF FF
  76.922576 2  1CEFFA03x    Rx   d 8 AD 01 00 00 22 00 4F 11
  76.922864 2  1CEFFA03x    Rx   d 8 AD 02 3C 2A 3C 2A 42 2A
   76.92312 2  18FEF326x    Rx   d 8 96 8C 00 96 C1 54 CB 47
  76.923408 2  1CEFFA03x    Rx   d 8 AD 03 0A 2A 0A 27 3C 2A
  76.923664 2  08FFFF26x    Rx   d 8 E1 DF C9 63 16 64 FF 22
  76.923952 2  0CF0045Bx    Rx   d 8 F1 FF D5 E2 44 FF F4 FF
   76.92424 2  0CFFFF26x    Rx   d 8 51 03 02 20 08 05 06 04
  76.924496 2  1CEFFA03x    Rx   d 8 AD 12 B0 A2 00 80 CD 29
  76.924784 2  18FEE826x    Rx   d 8 D3 2C 69 07 C4 63 94 54
   76.92504 2  1CEFFA03x    Rx   d 8 AD 1B 01 00 04 00 01 00
  76.925328 2  18FFFF26x    Rx   d 8 53 0D A7 5A 10 55 41 54
  76.925616 2  1CEFFA03x    Rx   d 8 AD 1D 15 00 00 00 02 00
  76.925904 2  1CEFFA03x    Rx   d 8 AD 1E 62 0A FC 01 F2 01
   76.92616 2  1CEFFA03x    Rx   d 8 AD 1F 26 0B 00 00 12 00
  76.926448 2  18EFFF06x    Rx   d 8 F8 20 F2 FF FF FF FF FF
  76.926736 2  1CEFFA03x    Rx   d 8 AD 20 E9 00 32 00 00 A2
  76.927024 2  1CEFFA03x    Rx   d 8 AD 21 00 FF 00 FF FF FF
  76.927056 1  18FFFF26x    Rx   d 8 06 FF FF FF FF FF FF 3F
  76.927312 2  18FFFA26x    Rx   d 8 00 31 07 FF FF FF FF FF
  76.927344 1  18EFFF26x    Rx   d 8 F8 0B 5E 01 FF FF F1 07
    76.9276 2  1CEFFA03x    Rx   d 8 AD 29 DA 0A A2 03 A2 03
  76.927664 1  0CAD262Ax    Rx   d 8 8A 7D FD FF FF FF FF FF
  76.927984 1  0CFFF42Ax    Rx   d 8 64 2A 46 30 00 FA 35 25
  76.928144 2  1CE6EA26x    Rx   d 8 A8 40 04 00 E8 02 00 00
  76.928272 1  18EFFF26x    Rx   d 8 64 46 8F 01 FF FF 00 00
  76.928592 1  18FFF42Ax    Rx   d 8 5D 53 FA C7 7C 1D 64 FF
   76.92872 2  18FFF426x    Rx   d 8 5D 53 FA C7 7C 1D 64 FF
   76.92888 1  1CEFFA2Ax    Rx   d 8 AD 0A 00 64 00 64 00 7D
   76.92904 2  0CADFF26x    Rx   d 8 8A 7D FD FF FF FF FF FF
    76.9292 1  1CEFFA2Ax    Rx   d 8 AD 01 F3 7C 00 7D 20 7D
  76.929328 2  18FFF426x    Rx   d 8 64 2A 46 30 00 FA 35 25
  76.929616 2  18FFFF31x    Rx   d 8 09 FF FF FF FF F3 FF FF
  76.929744 1  1CEFFA2Ax    Rx   d 8 AD 07 42 64 F6 63 39 64
  76.930032 1  1CEFFA2Ax    Rx   d 8 AD 06 E2 63 29 64 00 64
   76.93016 2  0CF00400x    Rx   d 8 F1 FF D4 EE 44 FF F4 FF
  76.930608 1  1CEFFA2Ax    Rx   d 8 AD 03 89 66 54 64 00 64
  76.930672 2  18E726EAx    Rx   d 8 A8 40 04 FF E9 02 00 00
  76.930896 1  1CEFFA2Ax    Rx   d 8 AD 02 2B 64 FA 62 FE 63
  76.931056 2  1CEFFA03x    Rx   d 8 AD 01 00 00 22 00 4F 11
  76.931216 1  1CEFFA2Ax    Rx   d 8 AD 08 00 64 00 64 00 64
  76.931312 2  1CEFFA03x    Rx   d 8 AD 02 3C 2A 3C 2A 43 2A
    76.9316 2  1CEFFA03x    Rx   d 8 AD 03 09 2A 09 27 3C 2A
  76.931792 1  1CFFF42Ax    Rx   d 8 5B 00 7D 1D 64 01 80 96
  76.931888 2  08FFFBEAx    Rx   d 8 FB 02 00 E9 02 FF FF FF
   76.93208 1  1CFFF42Ax    Rx   d 8 5C 4A 29 A5 14 03 64 64
  76.932144 2  1CEFFA03x    Rx   d 8 AD 29 DA 0A A2 03 A2 03
  76.932592 2  0CFE48D4x    Rx   d 8 FF FF FF FF FF FF FF FF
  76.932848 2  18EFFFD4x    Rx   d 8 EA 00 37 C8 BC B0 D7 4A
  76.933136 2  1CFFF831x    Rx   d 8 85 08 4D FF FF FF FF FC
  76.933616 2  10FF145Bx    Rx   d 8 FF FF FF FF FF FF FF F3
  76.933904 2  08FFFBEAx    Rx   d 8 FB 02 12 00 00 FF FF FF
  76.937872 2  0CEFFFEBx    Rx   d 8 F2 25 FA FF FF FF FF FF
   76.93816 2  18FFFAEBx    Rx   d 8 01 73 3F FF F3 FF 0F FF
  76.938416 2  1CE6EA26x    Rx   d 8 A8 40 04 00 E9 02 00 00
  76.939088 1  18FFFAD1x    Rx   d 8 01 33 03 00 93 71 FF FF
  76.940112 2  10FFFE19x    Rx   d 8 0B FF FF 23 FC 00 FF FF
    76.9404 2  0CEFFF00x    Rx   d 8 64 06 F2 81 C0 FA 9A 00
  76.940688 2  18E726EAx    Rx   d 8 A8 40 04 FF EA 02 00 00
  76.940976 2  0CF00300x    Rx   d 8 FF FE 5B FF FF FF C0 FF
  76.941264 2  0CF00400x    Rx   d 8 F1 FF D4 E2 44 FF F4 FF
  76.941552 2  18EFFF00x    Rx   d 8 F8 21 04 00 00 00 1E 00
  76.941808 2  1CEFFA03x    Rx   d 8 AD 00 8D D9 D9 AA F9 F9
  76.942096 2  1CEFFA03x    Rx   d 8 AD 01 00 00 22 00 4F 11
  76.942384 2  1CEFFA03x    Rx   d 8 AD 02 3F 2A 3E 2A 40 2A
  76.942672 2  1CEFFA03x    Rx   d 8 AD 03 0D 2A 0E 27 3F 2A
  76.942928 2  1CEFFA03x    Rx   d 8 AD 04 DF 26 10 27 01 04
  76.943216 2  1CEFFA03x    Rx   d 8 AD 05 29 27 10 27 10 27
  76.943504 2  1CEFFA03x    Rx   d 8 AD 07 FC 15 51 8D 7D 64
   76.94376 2  0CF0045Bx    Rx   d 8 F1 FF D4 E2 44 FF F4 FF
  76.944048 2  1CEFFA03x    Rx   d 8 AD 0A FF FF A2 A2 00 C4
  76.944336 2  1CEFFA03x    Rx   d 8 AD 0B FF FF 00 72 FF FF
   76.94456 1  0CFFFECCx    Rx   d 8 8B FF FF FF FF FF FF FF
  76.944592 2  1CEFFA03x    Rx   d 8 AD 12 64 A2 00 80 D0 29
  76.944848 1  0CEF00CCx    Rx   d 8 6E FF FF FF FF FF FF FF
   76.94488 2  1CEFFA03x    Rx   d 8 AD 13 04 23 00 00 00 00
  76.945136 1  18FFFAD1x    Rx   d 8 02 61 FF FF FF FF FF FF
  76.945168 2  1CEFFA03x    Rx   d 8 AD 14 B8 C7 00 4F 11 28
  76.945424 1  0CF00426x    Rx   d 8 F1 FF D5 E2 44 FF F4 FF
   76.94568 2  1CEFFA03x    Rx   d 8 AD 16 0A 3C 7F 04 01 03
  76.945968 1  14FFFED1x    Rx   d 8 6F FF FF FF FF FF FF FF
  76.946224 2  1CEFFA03x    Rx   d 8 AD 1B 01 00 04 00 01 00
  76.946512 1  0CF00426x    Rx   d 8 F1 FF D5 E2 44 FF F4 FF
  76.946768 2  1CEFFA03x    Rx   d 8 AD 1D 15 00 00 00 02 00
  76.947056 1  18FFFAD1x    Rx   d 8 02 59 FF FF FF FF FF FF
  76.947312 2  18EFFA26x    Rx   d 8 AD 20 05 F0 00 00 00 00
  76.947568 1  0CF00426x    Rx   d 8 F1 FF D4 EE 44 FF F4 FF
    76.9476 2  1CEFFA03x    Rx   d 8 AD 1E 62 0A FC 01 F2 01
  76.947856 1  0CFE0AD1x    Rx   d 8 FF FF FF FF FF FF FF FF
  76.947888 2  18EFFA26x    Rx   d 8 AD 21 00 00 00 00 02 00
  76.948144 1  0CF022D1x    Rx   d 8 FF FF FF FF FF FF FF FF
  76.948176 2  1CEFFA03x    Rx   d 8 AD 1F 2B 0B 00 00 12 00
  76.948432 2  18EFFA26x    Rx   d 8 AD 22 08 00 08 00 03 00
  76.948464 1  18FFFAD1x    Rx   d 8 02 5D FF FF FF FF FF FF
   76.94872 2  1CEFFA03x    Rx   d 8 AD 20 EA 00 49 00 00 A2
  76.948752 1  18FFFAD1x    Rx   d 8 02 4B FF FF FF FF FF FF
  76.949008 2  1CEFFA03x    Rx   d 8 AD 21 00 FF 00 FF FF FF
   76.94904 1  14FFFED1x    Rx   d 8 10 FF FF FF FF FF FF FF
  76.949296 2  18FD0726x    Rx   d 8 04 00 00 FF FF FF FF FF
  76.949328 1  18FD0726x    Rx   d 8 04 00 00 FF FF FF FF FF
  76.949584 2  1CEFFA03x    Rx   d 8 AD 29 DA 0A A2 03 A2 03
  76.949616 1  18FFF8D1x    Rx   d 8 20 FF FF FF FF FF FF FF
   76.94984 2  1CE6EA26x    Rx   d 8 A8 40 04 00 EA 02 00 00
  76.949904 1  0CF00426x    Rx   d 8 F1 FF D4 E2 44 FF F4 FF
  76.950192 1  0CFFFED1x    Rx   d 8 8B FF FF FF FF FF FF FF
   76.95032 2  0CFFF331x    Rx   d 8 31 BC 2B FF FF FF FF F9
   76.95048 1  0CEF00D1x    Rx   d 8 6E FF FF FF FF FF FF FF
  76.950736 1  0CF00426x    Rx   d 8 F1 FF D4 E2 44 FF F4 FF
  76.951184 2  0CF00400x    Rx   d 8 F1 FF D4 FA 44 FF F4 FF
  76.951504 2  08FEF103x    Rx   d 8 FF AE 07 CF FF FF FF FF
  76.951792 2  08FFFBEBx    Rx   d 8 FB 02 01 4C 04 FF FF FF
   76.95208 2  0CF02300x    Rx   d 8 C3 23 F2 FF FF 6F FF FF
  76.952336 2  18E726EAx    Rx   d 8 A8 40 04 FF EB 02 00 00
  76.952624 2  1CEFFA03x    Rx   d 8 AD 01 00 00 22 00 4F 11
  76.952912 2  1CEFFA03x    Rx   d 8 AD 02 3F 2A 3F 2A 3D 2A
  76.953168 2  1CEFFA03x    Rx   d 8 AD 03 10 2A 12 27 3F 2A
  76.953456 2  1CEFFA03x    Rx   d 8 AD 29 DA 0A A2 03 A2 03
  76.953904 2  18EFFF31x    Rx   d 8 F4 19 FF FF FF FF FF FF
   76.95464 2  18FFFB5Bx    Rx   d 8 00 05 E3 FF FF FF FF FF
  76.954928 2  0CFF18EBx    Rx   d 8 80 02 00 05 40 07 03 FF
  76.955216 2  18E726EBx    Rx   d 8 A8 23 05 FF 01 00 00 00
  76.956272 2  18FFF886x    Rx   d 8 9B 00 7D 3D 64 80 1A 00
  76.958928 2  14EFFFEBx    Rx   d 8 64 95 41 12 F0 FF FF FF
  76.959216 2  14EFFFEBx    Rx   d 8 64 52 1F 1E 00 00 FF FF
  76.960848 2  0CEFFF00x    Rx   d 8 64 06 F0 81 BF FA 9A 00
  76.961168 2  0CF00300x    Rx   d 8 FF FE 5C FF FF FF BF FF
  76.961456 2  0CF00400x    Rx   d 8 F1 FF D4 E2 44 FF F4 FF
  76.961712 2  18EFFF00x    Rx   d 8 64 10 0F 0F 7A 33 0D 3D
     76.962 2  18FFFE31x    Rx   d 8 05 FC FF FF FF FF FF FF
  76.962288 2  18FEF600x    Rx   d 8 FF 73 6D FF 6B FF FF FF
  76.962576 2  1CEFFA03x    Rx   d 8 AD 01 00 00 22 00 4F 11
  76.962864 2  1CEFFA03x    Rx   d 8 AD 02 3F 2A 3F 2A 3E 2A
  76.963376 2  1CEFFA03x    Rx   d 8 AD 03 0F 2A 11 27 3F 2A
  76.963664 2  1CE6EA26x    Rx   d 8 A8 40 04 00 EB 02 00 00
  76.963952 2  18EFFF31x    Rx   d 8 F1 07 CC CC 00 00 CC CC
  76.963984 1  0CFFF826x    Rx   d 8 9B 00 7D 3D 64 80 1A 00
   76.96424 2  18EFFF31x    Rx   d 8 F0 02 CC 00 30 F0 FF FF
  76.964528 2  18FECA79x    Rx   d 8 00 FF 00 00 00 00 FF FF
  76.964816 2  18EFFF26x    Rx   d 8 09 FF FF FF FF FA 00 FF
  76.965072 2  0CF0045Bx    Rx   d 8 F1 FF D4 E2 44 FF F4 FF
   76.96536 2  1CE6EB26x    Rx   d 8 A8 23 05 00 01 00 00 00
  76.965648 2  1CEFFA03x    Rx   d 8 AD 06 7D 7D 00 7D D9 28
  76.965904 1  0CF00426x    Rx   d 8 F1 FF D4 FA 44 FF F4 FF
  76.965936 2  1CEFFA03x    Rx   d 8 AD 08 8D 04 FF FF FF FF
  76.966224 1  08FEF126x    Rx   d 8 FF AE 07 CF FF FF FF FF
   76.96648 2  18FFFB86x    Rx   d 8 FB 05 FF FF FF FF FF FF
  76.966736 2  1CEFFA03x    Rx   d 8 AD 09 64 8E 00 8C 67 93
  76.967024 2  1CEFFA03x    Rx   d 8 AD 0C 6B 20 FF DD A0 10
  76.967312 2  18EFFF06x    Rx   d 8 F8 20 F2 FF FF FF FF FF
    76.9676 2  1CEFFA03x    Rx   d 8 AD 0D E9 14 3A 12 FF FF
  76.967856 2  1CEFFA03x    Rx   d 8 AD 0F 00 FF 15 00 00 00
  76.968144 2  18EFFF31x    Rx   d 8 F0 0E 88 88 88 88 88 88
    76.9684 2  1CEFFA03x    Rx   d 8 AD 12 74 A2 00 80 D1 29
  76.968688 2  1CEFFA03x    Rx   d 8 AD 15 40 00 03 06 FF FF
  76.968976 2  1CEFFA03x    Rx   d 8 AD 1A B3 02 00 00 00 00
  76.969264 2  1CEFFA03x    Rx   d 8 AD 1B 01 00 04 00 01 00
  76.969552 2  1CEFFA03x    Rx   d 8 AD 1C 00 00 00 00 01 00
   76.96984 2  1CEFFA03x    Rx   d 8 AD 1D 15 00 00 00 02 00
  76.970128 2  1CEFFA03x    Rx   d 8 AD 1E 62 0A FC 01 F2 01
  76.970384 2  1CEFFA03x    Rx   d 8 AD 1F 2B 0B 00 00 12 00
  76.970672 2  0CFF1B31x    Rx   d 8 27 BE AE 00 B0 44 00 00
   76.97096 2  1CE6EB26x    Rx   d 8 05 23 05 FF 04 00 00 00
  76.971248 2  1CEFFA03x    Rx   d 8 AD 20 EA 00 49 00 00 A2
  76.971504 2  1CEFFA03x    Rx   d 8 AD 21 00 FF 00 FF FF FF
  76.971792 2  1CEFFA03x    Rx   d 8 AD 29 DA 0A A2 03 A2 03
   76.97208 2  0CF00400x    Rx   d 8 F1 FF D4 D6 44 FF F4 FF
  76.972368 2  18E726EAx    Rx   d 8 A8 40 04 FF EA 02 00 00
  76.972624 2  18E726EBx    Rx   d 8 05 23 05 FF 04 00 00 00
  76.972912 2  1CEFFA03x    Rx   d 8 AD 01 00 00 22 00 50 11
    76.9732 2  08FFFBEAx    Rx   d 8 FB 02 00 EA 02 FF FF FF
  76.973488 2  1CEFFA03x    Rx   d 8 AD 02 3F 2A 3F 2A 3E 2A
  76.973744 2  1CEFFA03x    Rx   d 8 AD 03 0F 2A 11 27 3F 2A
  76.974032 2  18EFFFD4x    Rx   d 8 EA 00 37 C8 BC B0 D7 4A
  76.974192 1  0CF00426x    Rx   d 8 F1 FF D4 E2 44 FF F4 FF
   76.97432 2  18FECAD4x    Rx   d 8 00 FF 00 00 00 00 FF FF
   76.97448 1  0CF00426x    Rx   d 8 F1 FF D4 E2 44 FF F4 FF
  76.974608 2  1CEFFA03x    Rx   d 8 AD 29 D5 0A A3 03 A3 03
  76.974864 2  1CEFFA5Bx    Rx   d 8 AD 04 E9 35 18 14 82 13
  76.975152 2  08EFFF5Bx    Rx   d 8 64 57 2F FF FF 00 00 FF
   76.97544 2  14EFFF5Bx    Rx   d 8 64 53 FF FF 40 03 65 F1
  76.975696 2  1CEFFA5Bx    Rx   d 8 AD 05 49 35 5D 35 8D 35
  76.975984 2  1CEFFA5Bx    Rx   d 8 AD 06 7F 35 4F 35 00 00
  76.976272 2  0CACFF13x    Rx   d 8 88 7D 14 1F C0 FF FF FF
   76.97656 2  18EFFA26x    Rx   d 8 AD 42 4B 00 00 00 64 00
  76.976848 2  18FFF413x    Rx   d 8 63 FA 69 07 53 E1 FF FF
  76.977104 2  18EFFA26x    Rx   d 8 AD 45 0C 00 05 00 FF FF
  76.977392 2  1CEFFA5Bx    Rx   d 8 AD 07 D4 35 33 35 00 00
   76.97768 2  18EFFA26x    Rx   d 8 AD 41 A0 00 00 00 FF FF
  76.979408 1  0CF00426x    Rx   d 8 F1 FF D4 D6 44 FF F4 FF
  76.980048 1  0CACFF26x    Rx   d 8 88 7D 14 1F C0 FF FF FF
  76.980336 1  18FFF426x    Rx   d 8 63 FA 69 07 53 E1 FF FF
  76.980592 2  1CE6EA26x    Rx   d 8 A8 40 04 00 EA 02 00 00
  76.980656 1  18EFFF26x    Rx   d 8 64 53 FF FF 40 03 65 F1
   76.98088 2  18FFFF31x    Rx   d 8 EC FF FF FF FF FD FF FF
    76.9812 2  0CEFFF00x    Rx   d 8 64 06 EF 81 BE FA 9A 00
  76.981488 2  0CF00300x    Rx   d 8 FF FE 5E FF FF FF BE FF
  76.981936 2  18FFFA26x    Rx   d 8 00 24 00 FF FF FF FF FF
  76.982224 2  0CF00400x    Rx   d 8 F1 FF D4 A6 44 FF F4 FF
  76.982864 2  18E726EAx    Rx   d 8 A8 40 04 FF E9 02 00 00
  76.983152 2  1CEFFA03x    Rx   d 8 AD 00 8D D9 D9 AA F9 F9
  76.983408 2  1CEFFA03x    Rx   d 8 AD 01 00 00 22 00 4F 11
  76.983728 2  1CEFFA03x    Rx   d 8 AD 02 3F 2A 3F 2A 40 2A
  76.983984 2  1CEFFA03x    Rx   d 8 AD 03 0F 2A 0F 27 3F 2A
  76.984208 1  18FFFF26x    Rx   d 8 EC FF FF FF FF FD FF FF
   76.98424 2  1CEFFA03x    Rx   d 8 AD 04 E0 26 10 27 01 04
  76.984528 2  1CEFFA03x    Rx   d 8 AD 05 29 27 10 27 10 27
  76.984816 2  1CEFFA03x    Rx   d 8 AD 07 FC 14 51 8D 7D 64
  76.985104 2  0CF0045Bx    Rx   d 8 F1 FF D4 A6 44 FF F4 FF
   76.98536 2  1CEFFA03x    Rx   d 8 AD 0A FF FF A1 A2 00 C4
   76.98568 2  0CFFEC5Bx    Rx   d 8 FF FF FF FF FF FF FF FF
  76.985872 1  0CFE0ACCx    Rx   d 8 FF FF FF FF FF FF FF FF
  76.985936 2  1CEFFA03x    Rx   d 8 AD 0B FF FF 00 73 FF FF
   76.98616 1  0CF022CCx    Rx   d 8 FF FF FF FF FF FF FF FF
  76.986224 2  08FFFA5Bx    Rx   d 8 00 22 05 F3 0D 0A FF FF
  76.986448 1  0CFFFED1x    Rx   d 8 8B FF FF FF FF FF FF FF
   76.98648 2  1CEFFA03x    Rx   d 8 AD 12 A4 A2 00 80 D1 29
  76.986736 1  0CEF00D1x    Rx   d 8 6E FF FF FF FF FF FF FF
    76.9868 2  18FFF486x    Rx   d 8 6C FF FF FF FF FF FF FF
  76.987024 1  18FFF8CCx    Rx   d 8 20 FF FF FF FF FF FF FF
  76.987056 2  1CEFFA03x    Rx   d 8 AD 13 04 23 00 00 00 00
  76.987312 1  0CFFFECCx    Rx   d 8 8B FF FF FF FF FF FF FF
  76.987344 2  18FFF413x    Rx   d 8 5F 51 64 C4 9A 62 FF FF
    76.9876 1  0CEF00CCx    Rx   d 8 6E FF FF FF FF FF FF FF
  76.987632 2  1CEFFA03x    Rx   d 8 AD 14 B8 C7 00 4F 11 28
  76.987888 2  1CEFFA03x    Rx   d 8 AD 16 0A 3C 7C 04 01 03
  76.988176 2  1CEFFA03x    Rx   d 8 AD 1B 01 00 04 00 01 00
  76.988464 2  18FFFE31x    Rx   d 8 FD FB FB FB FB FF FF FF
  76.988752 2  18EFFF31x    Rx   d 8 F0 08 88 88 88 FF FF 88
   76.98904 2  1CEFFA03x    Rx   d 8 AD 1D 15 00 00 00 02 00
  76.989072 1  0CF00426x    Rx   d 8 F1 FF D4 A6 44 FF F4 FF
  76.989296 2  14EFFFEBx    Rx   d 8 64 4A 48 04 8F 89 FE FF
  76.989584 2  1CE6EA26x    Rx   d 8 A8 40 04 00 E9 02 00 00
  76.989872 2  1CEFFA03x    Rx   d 8 AD 1E 59 0A FC 01 F2 01
   76.99016 2  1CEFFA03x    Rx   d 8 AD 1F 26 0B 00 00 0F 00
  76.990448 2  1CEFFA03x    Rx   d 8 AD 20 EA 00 49 00 00 A2
  76.990704 2  0CFFF331x    Rx   d 8 31 C3 2B FF FF FF FF F9
  76.990992 2  1CEFFA03x    Rx   d 8 AD 21 00 FF 00 FF FF FF
   76.99128 2  1CEFFA03x    Rx   d 8 AD 29 DA 0A A2 03 A2 03
  76.991568 2  0CF00400x    Rx   d 8 F1 FF D6 B2 44 FF F4 FF
  76.991952 2  18E726EAx    Rx   d 8 A8 40 04 FF E8 02 00 00
   76.99224 2  1CEFFA03x    Rx   d 8 AD 01 00 00 22 00 4E 10
  76.992528 2  1CEFFA03x    Rx   d 8 AD 02 3F 2A 3F 2A 41 2A
  76.992816 2  1CEFFA03x    Rx   d 8 AD 03 0E 2A 0E 27 3F 2A
  76.993104 2  1CEFFA03x    Rx   d 8 AD 29 D5 0A A2 03 A3 03
  76.993872 2  18EFFFD4x    Rx   d 8 EA 01 33 F0 0F F5 FF FF
  76.994832 2  08FEF15Bx    Rx   d 8 FF AE 07 CF FF FF FF FF
   76.99512 2  18EFFFF2x    Rx   d 8 FC 04 32 00 64 00 FF FF
  76.995344 1  0CF00426x    Rx   d 8 F1 FF D4 A6 44 FF F4 FF
  76.995408 2  08FFFA5Bx    Rx   d 8 00 21 1E 2F 50 2D FF FE
  76.995696 2  0CFF18EBx    Rx   d 8 80 11 00 06 40 07 04 FF
  76.995984 2  18E726EBx    Rx   d 8 A8 23 05 FF 01 00 00 00
  76.999152 2  08EFFFEBx    Rx   d 8 64 48 FF FF FF FD FF FF
   76.99992 2  1CE6EA26x    Rx   d 8 A8 40 04 00 E8 02 00 00
  77.000112 1  0CF00426x    Rx   d 8 F1 FF D6 B2 44 FF F4 FF
    77.0004 1  08FEF126x    Rx   d 8 FF AE 07 CF FF FF FF FF
  77.000624 2  0CFE4831x    Rx   d 8 FF FF FF FF FF FF FF F7
  77.000912 2  18FFFF31x    Rx   d 8 87 FF 00 FF FF FF FF FF
    77.0012 2  0CEFFF00x    Rx   d 8 64 06 0B 82 BD FA 9A 00
  77.001488 2  0CF00300x    Rx   d 8 FF FE 5D FF FF FF BD FF
  77.001744 1  18EFFFD3x    Rx   d 8 AD 01 00 00 00 00 00 00
     77.002 2  0CF00400x    Rx   d 8 F1 FF D6 90 44 FF F4 FF
  77.002288 1  18EFFFD3x    Rx   d 8 AD 02 11 01 01 98 0A 2A
  77.002544 2  14FFFEEAx    Rx   d 8 47 8E 01 6B 00 6D 7D FF
    77.0028 1  18EFFFD3x    Rx   d 8 AD 03 0F 00 AC 71 23 66
  77.002832 2  0CF02300x    Rx   d 8 C3 23 F2 FF FF 6F FF FF
  77.003088 1  18EFFFD3x    Rx   d 8 AD 04 0F 01 00 00 C6 01
   77.00312 2  14FFFFEAx    Rx   d 8 16 FF 62 69 00 00 B2 38
  77.003376 1  18EFFFD3x    Rx   d 8 AD 05 37 75 01 0F 67 77
  77.003408 2  1CEFFA03x    Rx   d 8 AD 01 00 00 22 00 4E 10
  77.003632 1  18EFFFD3x    Rx   d 8 AD 06 DC 73 06 64 00 13
  77.003664 2  1CEFFA03x    Rx   d 8 AD 02 3F 2A 3F 2A 45 2A
   77.00392 1  18EFFFD3x    Rx   d 8 AD 07 40 01 01 F0 FF FF
  77.003952 2  1CEFFA03x    Rx   d 8 AD 03 0D 2A 0A 27 3F 2A
  77.004208 1  18EFFFD3x    Rx   d 8 AD 08 01 F0 CF 00 D2 29
   77.00424 2  18FFFA26x    Rx   d 8 07 00 0F 06 71 09 B3 07
  77.004464 1  18EFFFD3x    Rx   d 8 AD 09 9A 2A DC 73 10 27
  77.004496 2  1CEFFA03x    Rx   d 8 AD 12 C0 A2 00 80 D0 29
  77.004752 1  18EFFFD3x    Rx   d 8 AD 0A 10 27 8E 2A 91 26
  77.004784 2  1CEFFA03x    Rx   d 8 AD 1B 01 00 04 00 01 00
   77.00504 1  08EFFF26x    Rx   d 8 64 48 FF FF FF FD FF FF
  77.005072 2  1CEFFA03x    Rx   d 8 AD 1D 15 00 00 00 02 00
  77.005296 1  18EFFFD3x    Rx   d 8 AD 0B 10 27 3C 2B 1E 30
   77.00536 2  1CE6EB26x    Rx   d 8 A8 23 05 00 01 00 00 00
  77.005584 1  0CF00426x    Rx   d 8 F1 FF D6 90 44 FF F4 FF
  77.005648 2  0CF0045Bx    Rx   d 8 F1 FF D6 90 44 FF F4 FF
  77.005872 1  18EFFFD3x    Rx   d 8 AD 0C 89 21 01 00 01 00
  77.005904 2  1CEFFA03x    Rx   d 8 AD 1E 67 0A FC 01 F2 01
   77.00616 1  18EFFFD3x    Rx   d 8 AD 0D 40 0F 00 00 01 00
  77.006192 2  1CEFFA03x    Rx   d 8 AD 1F 2B 0B 00 00 12 00
  77.006416 1  18EFFFD3x    Rx   d 8 AD 0E 18 FF 03 00 06 02
   77.00648 2  1CEFFA03x    Rx   d 8 AD 20 EA 00 49 00 00 A2
  77.006704 1  18EFFFD3x    Rx   d 8 AD 0F 6C 02 00 00 06 02
  77.006768 2  18EFFF06x    Rx   d 8 F8 20 F2 FF FF FF FF FF
  77.007056 2  1CEFFA03x    Rx   d 8 AD 21 00 FF 00 FF FF FF
  77.007312 2  1CEFFA03x    Rx   d 8 AD 29 DA 0A A2 03 A2 03
  77.007728 2  1CE6EB26x    Rx   d 8 05 23 05 FF 04 00 00 00
  77.008112 2  18E726EBx    Rx   d 8 05 23 05 FF 04 00 00 00
  77.010256 1  0CF00426x    Rx   d 8 F1 FF D6 90 44 FF F4 FF
  77.010928 2  18FFFB26x    Rx   d 8 F9 01 02 B3 07 FF FF FF
  77.011792 2  0CF00400x    Rx   d 8 F1 FF D6 B6 44 FF F4 FF
  77.012304 2  18E726EAx    Rx   d 8 A8 40 04 FF E9 02 00 00
  77.012592 2  18FEDF00x    Rx   d 8 86 C0 44 FF FF FF FF 05
  77.012944 2  1CEFFA03x    Rx   d 8 AD 01 00 00 22 00 4E 10
  77.013232 2  1CEFFA03x    Rx   d 8 AD 02 3F 2A 3F 2A 47 2A
  77.013552 2  1CEFFA03x    Rx   d 8 AD 03 0C 2A 08 27 3F 2A
   77.01384 2  08FFFBEAx    Rx   d 8 FB 02 00 E8 02 FF FF FF
  77.014096 2  1CEFFA03x    Rx   d 8 AD 29 DA 0A A2 03 A2 03
  77.014384 2  18EFFFD4x    Rx   d 8 EA 00 37 C8 BC B0 D7 4A
   77.01544 2  08FFFBEAx    Rx   d 8 FB 02 12 00 00 FF FF FF
  77.017936 1  10FF641Cx    Rx   d 8 A0 17 1C 01 03 00 10 A6
  77.018224 2  18FFFA26x    Rx   d 8 00 5A 8A 01 B9 00 FF FF
  77.018256 1  10FF641Cx    Rx   d 8 A1 1D 3B 46 BE 90 83 83
  77.018608 1  10FF641Cx    Rx   d 8 A2 AC 05 80 80 04 00 00
  77.018928 1  10FF641Cx    Rx   d 8 A3 00 E8 28 AC 03 FF FF
  77.019696 2  08EFFFEBx    Rx   d 8 F8 0B 5E 01 FF FF F1 07
  77.020208 1  0CF00426x    Rx   d 8 F1 FF D6 B6 44 FF F4 FF
  77.021008 2  1CE6EA26x    Rx   d 8 A8 40 04 00 E9 02 00 00
  77.021296 2  0CFF1B31x    Rx   d 8 27 BE AE 00 C0 4C 00 00
  77.021328 1  18FFFAD3x    Rx   d 8 00 31 07 FF FF FF FF FF
  77.021584 2  0CEFFF00x    Rx   d 8 64 06 17 82 C0 FA 9A 00
  77.021872 2  08FFFAEAx    Rx   d 8 00 32 F2 00 00 FF FF FF
   77.02216 2  0CF00300x    Rx   d 8 FF FE 5B FF FF FF C0 FF
  77.022416 2  0CF00400x    Rx   d 8 F1 FF D6 C4 44 FF F4 FF
  77.022832 2  18FEF200x    Rx   d 8 85 05 FF FF FF FF FF FF
   77.02312 2  1CEFFA03x    Rx   d 8 AD 00 8D D9 D9 AA F9 F9
  77.023408 2  1CEFFA03x    Rx   d 8 AD 01 00 00 22 00 4D 11
  77.023664 2  18E726EAx    Rx   d 8 A8 40 04 FF EA 02 00 00
  77.023952 2  1CEFFA03x    Rx   d 8 AD 02 3F 2A 3F 2A 46 2A
   77.02424 2  1CEFFA03x    Rx   d 8 AD 03 0C 2A 09 27 3F 2A
  77.024496 2  18EFFFD4x    Rx   d 8 EA 02 04 00 A8 04 81 04
  77.024784 2  18EFFFD4x    Rx   d 8 EA 03 00 00 00 00 F0 FF
  77.025072 2  1CEFFA03x    Rx   d 8 AD 04 DD 26 10 27 01 04
   77.02536 2  1CEFFA03x    Rx   d 8 AD 05 29 27 10 27 10 27
  77.025616 2  0CF0045Bx    Rx   d 8 F1 FF D6 C4 44 FF F4 FF
  77.025904 2  1CEFFA03x    Rx   d 8 AD 07 FE 16 51 8D 7D 64
  77.026192 2  1CEFFA03x    Rx   d 8 AD 0A FF FF A2 A2 00 C4
  77.026384 1  0CFFFECCx    Rx   d 8 8B FF FF FF FF FF FF FF
   77.02648 2  1CEFFA03x    Rx   d 8 AD 0B FF FF 00 72 FF FF
  77.026672 1  0CEF00CCx    Rx   d 8 6E FF FF FF FF FF FF FF
  77.026736 2  1CEFFA03x    Rx   d 8 AD 12 B4 A2 00 80 CF 29
   77.02696 1  0CFFFED1x    Rx   d 8 8B FF FF FF FF FF FF FF
  77.027024 2  1CEFFA03x    Rx   d 8 AD 13 08 23 00 00 00 00
  77.027248 1  0CEF00D1x    Rx   d 8 6E FF FF FF FF FF FF FF
  77.027312 2  1CEFFA03x    Rx   d 8 AD 14 B8 C7 00 4D 11 28
  77.027536 1  18EFFF26x    Rx   d 8 F8 0B 5E 01 FF FF F1 07
  77.027568 2  1CEFFA03x    Rx   d 8 AD 16 0A 3C 7A 04 05 03
  77.027856 2  1CEFFA03x    Rx   d 8 AD 1B 01 00 04 00 01 00
  77.028144 2  1CEFFA03x    Rx   d 8 AD 1D 15 00 00 00 02 00
  77.028432 2  1CEFFA03x    Rx   d 8 AD 1E 59 0A FC 01 F2 01
  77.028688 2  1CEFFA03x    Rx   d 8 AD 1F 26 0B 06 00 12 00
  77.028976 2  1CEFFA03x    Rx   d 8 AD 20 E9 00 49 00 00 A2
  77.029264 2  1CEFFA03x    Rx   d 8 AD 21 00 FF 00 FF FF FF
  77.029552 2  1CEFFA03x    Rx   d 8 AD 29 DA 0A A2 03 A2 03
   77.02984 2  14EFFFEBx    Rx   d 8 F4 16 F0 FF FF FF FF FF
   77.03032 2  1CE6EA26x    Rx   d 8 A8 40 04 00 EA 02 00 00
  77.031088 2  0CFFF331x    Rx   d 8 31 C3 2B FF FF FF FF F9
  77.031568 2  18FFFBEAx    Rx   d 8 FB 0E F0 FF FF FF FF FF
  77.031952 2  0CF00400x    Rx   d 8 F1 FF D5 DC 44 FF F4 FF
  77.032528 2  08FFFBEBx    Rx   d 8 FB 02 01 42 04 FF FF FF
  77.032816 2  1CEFFA03x    Rx   d 8 AD 01 00 00 22 00 4D 11
  77.033104 2  1CEFFA03x    Rx   d 8 AD 02 3F 2A 3F 2A 46 2A
   77.03336 2  1CEFFA03x    Rx   d 8 AD 03 0C 2A 09 27 3F 2A
  77.033648 2  1CEFFA03x    Rx   d 8 AD 29 DA 0A A2 03 A2 03
  77.033936 2  1CFFFAEAx    Rx   d 8 00 2D FE 0B FF FF FF FF
   77.03464 2  1CFFF831x    Rx   d 8 85 08 4D FF FF FF FF FC
  77.035376 2  0CFF18EBx    Rx   d 8 80 09 00 03 40 07 05 FF
  77.035664 2  10FF145Bx    Rx   d 8 FF FF FF FF FF FF FF F3
  77.035952 2  18E726EBx    Rx   d 8 A8 23 05 FF 01 00 00 00
  77.037072 2  18FFFA26x    Rx   d 8 00 31 07 FF FF FF FF FF
  77.037104 1  0CF00426x    Rx   d 8 F1 FF D6 C4 44 FF F4 FF
  77.037392 1  0CF00426x    Rx   d 8 F1 FF D6 C4 44 FF F4 FF
   77.03848 2  18FFFA31x    Rx   d 8 00 2F 11 FF FF FF FF FF
  77.039664 2  14EFFFEBx    Rx   d 8 F8 0A CC FF FC FF FF FF
  77.039984 2  1CE6EB26x    Rx   d 8 A8 23 05 00 01 00 00 00
  77.040016 1  0CF00426x    Rx   d 8 F1 FF D5 DC 44 FF F4 FF
  77.041072 2  1CE6EB26x    Rx   d 8 05 23 05 FF 04 00 00 00
  77.041712 2  18E726EBx    Rx   d 8 05 23 05 FF 04 00 00 00
     77.042 2  0CEFFF00x    Rx   d 8 64 06 FE 81 C0 FA 9A 00
  77.042288 2  0CF00300x    Rx   d 8 FF FE 5A FF FF FF C0 FF
  77.042544 2  0CF00400x    Rx   d 8 F1 FF D5 F4 44 FF F4 FF
  77.042832 2  18E726EAx    Rx   d 8 A8 40 04 FF EB 02 00 00
  77.043024 1  18FFF42Ax    Rx   d 8 66 51 FF FD 6F 0F 00 00
   77.04312 2  18EFFF00x    Rx   d 8 F8 21 04 00 00 00 1E 00
  77.043408 2  18FEF500x    Rx   d 8 C5 FF FF F8 23 36 FF FF
  77.043696 2  1CEFFA03x    Rx   d 8 AD 01 00 00 22 00 4D 11
  77.043984 2  18FFFF26x    Rx   d 8 18 B8 23 FF FF FF FF FF
  77.044272 2  1CEFFA03x    Rx   d 8 AD 02 3F 2A 3F 2A 44 2A
   77.04456 2  18FFFF26x    Rx   d 8 18 B8 23 FF FF FF FF FF
  77.044624 1  0CEFFF26x    Rx   d 8 F8 0A CC FF FC FF FF FF
  77.044816 2  1CEFFA03x    Rx   d 8 AD 03 0D 2A 0B 27 3F 2A
  77.044944 1  0CF00426x    Rx   d 8 F1 FF D5 F4 44 FF F4 FF
  77.045104 2  0CFFF426x    Rx   d 8 66 51 FF FD 6F 0F 00 00
  77.045392 2  1CEFFA03x    Rx   d 8 AD 12 A8 A2 00 80 D0 29
  77.045648 2  0CF0045Bx    Rx   d 8 F1 FF D5 F4 44 FF F4 FF
  77.045936 2  18EFFF26x    Rx   d 8 09 FA FA FA FA FA FF FF
  77.046224 2  1CEFFA03x    Rx   d 8 AD 1B 01 00 04 00 01 00
  77.046512 2  1CE6EA26x    Rx   d 8 A8 40 04 00 EB 02 00 00
    77.0468 2  1CEFFA03x    Rx   d 8 AD 1D 15 00 00 00 02 00
  77.047056 2  1CEFFA03x    Rx   d 8 AD 1E 59 0A FC 01 F2 01
  77.047344 2  1CEFFA03x    Rx   d 8 AD 1F 21 0B 00 00 12 00
  77.047632 2  18EFFF06x    Rx   d 8 F8 20 F2 FF FF FF FF FF
   77.04792 2  1CEFFA03x    Rx   d 8 AD 20 EA 00 49 00 00 A2
  77.048208 2  1CEFFA03x    Rx   d 8 AD 21 00 FF 00 FF FF FF
  77.048496 2  1CEFFA03x    Rx   d 8 AD 29 DA 0A A2 03 A2 03
  77.049712 2  10F0EDEBx    Rx   d 8 EF FF FF FF FF FF FF FF
   77.05048 1  0CF00426x    Rx   d 8 F1 FF D5 F4 44 FF F4 FF
  77.051152 2  0CFE4131x    Rx   d 8 FF F3 3F 3F FF FF FF FF
   77.05144 2  08FFF831x    Rx   d 8 16 FF FF FF F0 FF FF FF
  77.051728 2  0CF00400x    Rx   d 8 F1 FF D3 DA 44 FF F4 FF
  77.052016 2  0CF02300x    Rx   d 8 BA 23 F2 FF FF 70 FF FF
  77.052272 2  08FEF103x    Rx   d 8 FF BB 07 CF FF FF FF FF
   77.05256 2  18E726EAx    Rx   d 8 A8 40 04 FF E9 02 00 00
  77.053104 2  1CEFFA03x    Rx   d 8 AD 01 00 00 22 00 4E 11
  77.053392 2  1CEFFA03x    Rx   d 8 AD 02 3F 2A 3F 2A 44 2A
   77.05368 2  08FFFBEAx    Rx   d 8 FB 02 16 1D 01 FF FF FF
  77.053968 2  08FFFBEAx    Rx   d 8 FB 02 00 E9 02 FF FF FF
  77.054224 2  1CEFFA03x    Rx   d 8 AD 03 0D 2A 0B 27 3F 2A
  77.054512 2  0CFE48D4x    Rx   d 8 FF FF FF FF FF FF FF FF
    77.0548 2  18EFFF31x    Rx   d 8 F4 19 FF FF FF FF FF FF
  77.055088 2  1CEFFA03x    Rx   d 8 AD 29 DA 0A A2 03 A2 03
  77.055408 2  14EFFF5Bx    Rx   d 8 64 53 FF FF 40 03 63 F1
  77.055696 2  18FFFB5Bx    Rx   d 8 00 05 E0 FF FF FF FF FF
  77.057392 2  18FFF886x    Rx   d 8 9B 01 7D 3C 64 80 1A 00
  77.060144 2  18FFF8FBx    Rx   d 8 EB 00 55 00 00 00 00 00
  77.060432 2  1CE6EA26x    Rx   d 8 A8 40 04 00 E9 02 00 00
   77.06072 2  18EF00FAx    Rx   d 8 56 0C 92 05 FF FF FF FF
  77.061584 2  0CEFFF00x    Rx   d 8 64 06 E6 81 C0 FA 9A 00
  77.061872 2  14FFFBEAx    Rx   d 8 FB 04 87 70 FB FF FF FF
  77.061904 1  18FFFED3x    Rx   d 8 B1 FF FF FF FF FF FF FF
   77.06216 2  0CF00300x    Rx   d 8 FF FE 5B FF FF FF C0 FF
  77.062416 2  14FFFB5Bx    Rx   d 8 01 15 BC B1 FF FF FF FF
  77.062448 1  18FF1FD3x    Rx   d 8 00 00 FF FF 00 00 82 FF
  77.062736 1  18EFFFD3x    Rx   d 8 F3 08 00 C0 00 00 00 00
  77.062992 2  0CF00400x    Rx   d 8 F1 FF D3 DC 44 FF F4 FF
   77.06328 1  08FEF126x    Rx   d 8 FF BB 07 CF FF FF FF FF
  77.063536 2  18E726EAx    Rx   d 8 A8 40 04 FF E8 02 00 00
  77.063792 2  18EFFF00x    Rx   d 8 64 10 0F 0F 89 33 11 3D
  77.063824 1  18EFFFD3x    Rx   d 8 F3 09 00 C0 00 00 00 00
   77.06408 1  0CF00426x    Rx   d 8 F1 FF D3 DA 44 FF F4 FF
  77.064336 2  1CEFFA03x    Rx   d 8 AD 00 8D D9 D9 AA F9 F9
  77.064624 1  18FFFED3x    Rx   d 8 F1 01 00 C0 00 00 FF FF
   77.06488 2  1CEFFA03x    Rx   d 8 AD 01 00 00 22 00 4D 11
  77.065136 2  1CEFFA03x    Rx   d 8 AD 02 3F 2A 3F 2A 44 2A
  77.065168 1  18EFFF26x    Rx   d 8 64 53 FF FF 40 03 63 F1
  77.065424 2  1CEFFA03x    Rx   d 8 AD 03 0D 2A 0B 27 3F 2A
   77.06568 2  1CEFFA03x    Rx   d 8 AD 04 DE 26 10 27 01 04
  77.065904 1  0CFFF826x    Rx   d 8 9B 01 7D 3C 64 80 1A 00
  77.065968 2  18EFFF31x    Rx   d 8 F1 07 CC CC 00 00 CC CC
  77.066256 1  0CF00426x    Rx   d 8 F1 FF D3 DC 44 FF F4 FF
  77.066512 2  18EFFF31x    Rx   d 8 F0 02 CC 00 30 F0 FF FF
    77.0668 2  1CE6EA26x    Rx   d 8 A8 40 04 00 E8 02 00 00
  77.067056 2  1CEFFA03x    Rx   d 8 AD 05 29 27 10 27 10 27
  77.067344 2  0CF0045Bx    Rx   d 8 F1 FF D3 DC 44 FF F4 FF
  77.067632 2  1CEFFA03x    Rx   d 8 AD 06 7D 7D 00 7D D9 28
  77.067888 2  1CEFFA03x    Rx   d 8 AD 07 FE 16 51 8D 7D 64
   77.06792 1  0CFFFECCx    Rx   d 8 8B FF FF FF FF FF FF FF
  77.068176 2  1CEFFA03x    Rx   d 8 AD 08 8D 04 FF FF FF FF
  77.068208 1  0CEF00CCx    Rx   d 8 6E FF FF FF FF FF FF FF
  77.068464 2  1CEFFA03x    Rx   d 8 AD 09 64 8E 00 8C 67 94
  77.068496 1  0CFFFED1x    Rx   d 8 8B FF FF FF FF FF FF FF
   77.06872 2  18EFFA00x    Rx   d 8 56 0C 92 05 00 05 FB 8C
  77.068784 1  0CEF00D1x    Rx   d 8 6E FF FF FF FF FF FF FF
  77.069008 2  1CEFFA03x    Rx   d 8 AD 0A FF FF A1 A2 00 C4
  77.069296 2  1CEFFA03x    Rx   d 8 AD 0B FF FF 00 72 FF FF
  77.069584 2  1CEFFA03x    Rx   d 8 AD 0C 6B 20 FF DD A4 10
   77.06984 2  1CEFFA03x    Rx   d 8 AD 0D EA 14 4D 12 FF FF
  77.070128 2  1CEFFA03x    Rx   d 8 AD 0F 00 FF 15 00 00 00
  77.070416 2  1CEFFA03x    Rx   d 8 AD 12 E4 A2 00 80 D0 29
  77.070704 2  1CEFFA03x    Rx   d 8 AD 13 08 23 00 00 00 00
   77.07096 2  1CEFFA03x    Rx   d 8 AD 14 B8 C7 00 4D 11 28
  77.071248 2  1CEFFA03x    Rx   d 8 AD 15 40 00 12 06 FF FF
  77.071536 2  1CEFFA03x    Rx   d 8 AD 16 0A 3C 7C 04 05 03
  77.071792 2  1CEFFA03x    Rx   d 8 AD 1A 97 02 00 00 00 00
  77.072112 2  1CEFFA03x    Rx   d 8 AD 1B 01 00 04 00 01 00
    77.0724 2  1CEFFA03x    Rx   d 8 AD 1C 00 00 00 00 01 00
  77.072688 2  0CFF1B31x    Rx   d 8 27 BE AE 00 D0 F6 00 00
  77.072976 2  0CFFF331x    Rx   d 8 31 B6 2B FF FF FF FF F9
  77.073232 2  1CEFFA03x    Rx   d 8 AD 1D 15 00 00 00 02 00
   77.07352 2  1CEFFA03x    Rx   d 8 AD 1E 6C 0A FC 01 F2 01
  77.073808 2  1CEFFA03x    Rx   d 8 AD 1F 26 0B 00 00 12 00
  77.074096 2  1CEFFA03x    Rx   d 8 AD 20 EA 00 49 00 00 A2
  77.074352 2  0CF00400x    Rx   d 8 F1 FF D4 B6 44 FF F4 FF
   77.07464 2  1CEFFA03x    Rx   d 8 AD 21 00 FF 00 FF FF FF
  77.074928 2  1CEFFA03x    Rx   d 8 AD 29 DA 0A A2 03 A2 03
  77.075024 1  18FFF8CCx    Rx   d 8 C1 7E 81 FF FF FF FF FF
  77.075216 2  1CEFFA03x    Rx   d 8 AD 01 00 00 22 00 4B 11
  77.075312 1  18FFF8CCx    Rx   d 8 C2 00 00 FF FF FF FF FF
  77.075472 2  1CEFFA03x    Rx   d 8 AD 02 3F 2A 3F 2A 47 2A
  77.075632 1  18FFF8CCx    Rx   d 8 C3 F4 00 FF FF FF FF FF
   77.07576 2  1CEFFA03x    Rx   d 8 AD 03 0C 2A 08 27 3F 2A
   77.07592 1  18FFF8CCx    Rx   d 8 C4 01 00 FF FF FF FF FF
  77.076016 2  1CEFFA03x    Rx   d 8 AD 29 DA 0A A2 03 A2 03
  77.076208 1  14FFF8CCx    Rx   d 8 C5 FF FF FF FF FF FF FF
  77.076496 1  18FFF8CCx    Rx   d 8 C8 11 F0 FD 0E FF C0 FF
  77.076752 2  1CEFFA5Bx    Rx   d 8 AD 04 E2 35 18 14 82 13
   77.07704 2  08EFFF5Bx    Rx   d 8 64 57 2F FF FF 00 00 FF
  77.077264 1  0CF00426x    Rx   d 8 F1 FF D3 DC 44 FF F4 FF
  77.077328 2  0CFF18EBx    Rx   d 8 80 12 00 04 40 07 06 FF
  77.077616 2  18E726EBx    Rx   d 8 A8 23 05 FF 01 00 00 00
  77.077872 2  1CEFFA5Bx    Rx   d 8 AD 05 56 35 5D 35 8D 35
   77.07816 2  0CACFF13x    Rx   d 8 89 7D 14 1F C0 FF FF FF
  77.078448 2  18EFFF86x    Rx   d 8 64 A4 F0 FF FF FF FF FF
  77.078736 2  18FFF413x    Rx   d 8 63 FA 69 07 53 E1 FF FF
  77.079024 2  1CEFFA5Bx    Rx   d 8 AD 06 7F 35 4F 35 00 00
   77.07928 2  1CEFFA5Bx    Rx   d 8 AD 07 D4 35 33 35 00 00
  77.081008 2  18EFFF31x    Rx   d 8 F2 27 60 FF FF FF FF FF
  77.081616 1  0CF00426x    Rx   d 8 F1 FF D4 B6 44 FF F4 FF
  77.081872 2  18FFFA26x    Rx   d 8 00 24 00 FF FF FF FF FF
  77.083408 2  0CEFFF00x    Rx   d 8 64 06 F0 81 BF FA 9A 00
  77.083728 2  0CF00300x    Rx   d 8 FF FE 5D FF FF FF BF FF
  77.084016 2  0CF00400x    Rx   d 8 F1 FF D4 A4 44 FF F4 FF
  77.084304 2  18E726EAx    Rx   d 8 A8 40 04 FF E7 02 00 00
  77.084592 2  1CE72631x    Rx   d 8 FF FF FF FF FF FF FF FF
  77.084848 2  18FE6900x    Rx   d 8 C6 2A BA 2C FF FF D8 28
  77.085136 2  1CEFFA03x    Rx   d 8 AD 01 00 00 22 00 4B 11
  77.085424 2  1CEFFA03x    Rx   d 8 AD 02 3F 2A 3F 2A 48 2A
   77.08568 2  1CEFFA03x    Rx   d 8 AD 03 0B 2A 07 27 3F 2A
  77.085968 2  1CEFFA03x    Rx   d 8 AD 12 98 A2 00 80 CE 29
  77.086256 2  1CEFFA03x    Rx   d 8 AD 1B 01 00 04 00 01 00
  77.086384 1  0CACFF26x    Rx   d 8 89 7D 14 1F C0 FF FF FF
  77.086544 2  1CEFFA03x    Rx   d 8 AD 1D 15 00 00 00 02 00
  77.086704 1  18FFF426x    Rx   d 8 63 FA 69 07 53 E1 FF FF
    77.0868 2  1CEFFA03x    Rx   d 8 AD 1E 62 0A F7 01 F2 01
  77.087088 2  1CE6EB26x    Rx   d 8 A8 23 05 00 01 00 00 00
  77.087376 2  1CEFFA03x    Rx   d 8 AD 1F 21 0B 00 00 12 00
  77.087632 2  0CF0045Bx    Rx   d 8 F1 FF D4 A4 44 FF F4 FF
  77.087952 2  18EFFF06x    Rx   d 8 F8 20 F2 FF FF FF FF FF
   77.08824 2  0CFFEC5Bx    Rx   d 8 FF FF FF FF FF FF FF FF
  77.088528 2  18FFF486x    Rx   d 8 6C FF FF FF FF FF FF FF
  77.088816 2  08FFFA5Bx    Rx   d 8 00 22 05 F3 0D 0A FF FF
  77.089072 2  1CEFFA03x    Rx   d 8 AD 20 E9 00 32 00 00 A2
   77.08936 2  1CEFFA03x    Rx   d 8 AD 21 00 FF 00 FF FF FF
  77.089648 2  08FFFB86x    Rx   d 8 FB 02 11 56 00 FF FF FF
  77.089936 2  18FFF413x    Rx   d 8 5F 66 64 C4 AF 62 FF FF
  77.090224 2  08FFFB86x    Rx   d 8 FB 02 26 00 00 FF FF FF
  77.090512 2  18FFFE31x    Rx   d 8 FD FB FB FB FB FF FF FF
    77.0908 2  08FFFB86x    Rx   d 8 FB 02 27 00 00 FF FF FF
  77.091056 2  1CEFFA03x    Rx   d 8 AD 29 DD 0A A1 03 A1 03
  77.091344 2  08FFFB86x    Rx   d 8 FB 02 0D 00 00 FF FF FF
  77.091408 1  0CF00426x    Rx   d 8 F1 FF D4 A4 44 FF F4 FF
  77.091632 2  14EFFFEBx    Rx   d 8 64 95 FF 11 F0 FF FF FF
   77.09192 2  1CE6EA26x    Rx   d 8 A8 40 04 00 E7 02 00 00
  77.092336 2  08FFFB86x    Rx   d 8 FB 02 0E 00 00 FF FF FF
   77.09288 2  1CE6EB26x    Rx   d 8 05 23 05 FF 04 00 00 00
  77.093136 2  08FFFB86x    Rx   d 8 FB 02 12 00 00 FF FF FF
  77.093424 2  18FFFB26x    Rx   d 8 F9 01 02 B3 07 FF FF FF
  77.093712 2  08FFFB86x    Rx   d 8 FB 02 0A 32 00 FF FF FF
     77.094 2  0CF00400x    Rx   d 8 F1 FF D6 7C 44 FF F4 FF
  77.094288 2  08FFFB86x    Rx   d 8 FB 02 1B 05 00 FF FF FF
  77.094576 2  18E726EAx    Rx   d 8 A8 40 04 FF E8 02 00 00
  77.094864 2  08FFFB86x    Rx   d 8 FB 02 0F 00 00 FF FF FF
  77.095152 2  18E726EBx    Rx   d 8 05 23 05 FF 04 00 00 00
   77.09544 2  18FFFB03x    Rx   d 8 FB 0B 80 12 B0 77 FF FF
  77.095728 2  08FFFBEAx    Rx   d 8 FB 02 16 22 01 FF FF FF
  77.095984 2  08FFFBEAx    Rx   d 8 FB 02 00 E8 02 FF FF FF
  77.096272 2  18EFFFD4x    Rx   d 8 EA 00 37 C8 BD B0 D7 4A
   77.09656 2  1CEFFA03x    Rx   d 8 AD 01 00 00 22 00 4B 10
  77.096816 2  1CEFFA03x    Rx   d 8 AD 02 3F 2A 3F 2A 45 2A
  77.097104 2  1CEFFA03x    Rx   d 8 AD 03 0D 2A 0A 27 3F 2A
  77.097392 2  08FEF15Bx    Rx   d 8 FF BB 07 CF FF FF FF FF
   77.09768 2  08FFFBEAx    Rx   d 8 FB 02 12 00 00 FF FF FF
  77.097968 2  08FFFA5Bx    Rx   d 8 00 21 1E 2F 00 2D FF FE
  77.098256 2  18FFFB5Bx    Rx   d 8 00 81 F2 FF FF FF FF FF
  77.098544 2  1CEFFA03x    Rx   d 8 AD 29 DA 0A A2 03 A2 03
  77.098576 1  0CF00426x    Rx   d 8 F1 FF D4 A4 44 FF F4 FF
  77.101488 2  08EFFFEBx    Rx   d 8 64 48 FF FF FF FD FF FF
  77.101808 1  0CF00426x    Rx   d 8 F1 FF D6 7C 44 FF F4 FF
  77.101968 2  1CE6EA26x    Rx   d 8 A8 40 04 00 E8 02 00 00
  77.102928 2  18FFFF31x    Rx   d 8 87 FF 00 FF FF FF FF FF
  77.103216 1  08FEF126x    Rx   d 8 FF BB 07 CF FF FF FF FF
  77.103248 2  0CEFFF00x    Rx   d 8 64 06 0C 82 BE FA 9A 00
  77.103536 2  0CF00300x    Rx   d 8 FF FE 5D FF FF FF BE FF
  77.103824 2  0CF00400x    Rx   d 8 F1 FF D6 90 44 FF F4 FF
  77.104048 1  18EFFFD3x    Rx   d 8 AD 01 00 00 00 00 00 00
  77.104176 2  18E726EAx    Rx   d 8 A8 40 04 FF EA 02 00 00
  77.104336 1  18EFFFD3x    Rx   d 8 AD 02 11 01 01 98 0A 2A
  77.104464 2  0CF02300x    Rx   d 8 BA 23 F2 FF FF 70 FF FF
  77.104592 1  10EFD2D3x    Rx   d 8 4F 08 BB 07 00 00 65 00
   77.10488 1  18EFFFD3x    Rx   d 8 AD 03 0F 00 B5 71 2B 66
  77.104912 2  1CEFFA03x    Rx   d 8 AD 00 8D D9 D9 AA F9 F9
  77.105168 1  10EFD2D3x    Rx   d 8 4F 14 00 00 00 00 0B 45
    77.1052 2  1CEFFA03x    Rx   d 8 AD 01 00 00 22 00 4B 11
  77.105456 1  18EFFFD3x    Rx   d 8 AD 04 F0 00 00 00 C6 01
  77.105712 2  1CEFFA03x    Rx   d 8 AD 02 3F 2A 3F 2A 47 2A
  77.105968 1  18EFFFD3x    Rx   d 8 AD 05 5C 78 01 0F B6 7A
     77.106 2  1CEFFA03x    Rx   d 8 AD 03 0C 2A 08 27 3F 2A
  77.106256 1  18EFFFD3x    Rx   d 8 AD 06 DC 73 06 64 00 13
  77.106288 2  1CEFFA03x    Rx   d 8 AD 04 DD 26 10 27 01 04
  77.106544 1  18EFFFD3x    Rx   d 8 AD 07 40 01 01 F0 FF FF
    77.1068 2  1CEFFA03x    Rx   d 8 AD 05 29 27 10 27 10 27
  77.107088 1  18EFFFD3x    Rx   d 8 AD 08 01 F0 CF 00 D2 29
  77.107344 2  1CEFFA03x    Rx   d 8 AD 07 00 15 51 8D 7D 64
  77.107632 1  08EFFF26x    Rx   d 8 64 48 FF FF FF FD FF FF
  77.107888 2  1CEFFA03x    Rx   d 8 AD 0A FF FF A1 A2 00 C4
  77.108144 1  18EFFFD3x    Rx   d 8 AD 09 E9 2D DC 73 10 27
  77.108176 2  1CEFFA03x    Rx   d 8 AD 0B FF FF 00 72 FF FF
    77.1084 1  18EFFFD3x    Rx   d 8 AD 0A 10 27 D2 2D 8F 26
  77.108464 2  0CF0045Bx    Rx   d 8 F1 FF D6 90 44 FF F4 FF
  77.108688 1  18EFFFD3x    Rx   d 8 AD 0B 10 27 3C 2B 1E 30
   77.10872 2  1CEFFA03x    Rx   d 8 AD 12 B0 A2 00 80 CF 29
  77.108976 1  18EFFFD3x    Rx   d 8 AD 0C 89 21 01 00 01 00
  77.109008 2  1CEFFA03x    Rx   d 8 AD 13 08 23 00 00 00 00
  77.109264 2  1CEFFA03x    Rx   d 8 AD 14 B8 C7 00 4B 11 28
   77.10952 1  0CFFFECCx    Rx   d 8 8B FF FF FF FF FF FF FF
  77.109808 2  1CEFFA03x    Rx   d 8 AD 16 0A 3C 7C 04 03 03
  77.110064 1  0CEF00CCx    Rx   d 8 6E FF FF FF FF FF FF FF
  77.110352 2  1CEFFA03x    Rx   d 8 AD 1B 01 00 04 00 01 00
  77.110608 1  0CFFFED1x    Rx   d 8 8B FF FF FF FF FF FF FF
  77.110896 2  1CEFFA03x    Rx   d 8 AD 1D 15 00 00 00 02 00
  77.111152 1  0CEF00D1x    Rx   d 8 6E FF FF FF FF FF FF FF
   77.11144 2  1CEFFA03x    Rx   d 8 AD 1E 62 0A FC 01 F7 01
  77.111696 1  18EFFFD3x    Rx   d 8 AD 0D 40 0F 00 00 01 00
  77.111952 2  1CEFFA03x    Rx   d 8 AD 1F 26 0B 00 00 12 00
  77.111984 1  18EFFFD3x    Rx   d 8 AD 0E 36 FF 03 00 06 02
   77.11224 2  1CEFFA03x    Rx   d 8 AD 20 E9 00 49 00 00 A2
  77.112272 1  18EFFFD3x    Rx   d 8 AD 0F 1D 03 00 00 06 02
  77.112784 2  1CEFFA03x    Rx   d 8 AD 21 00 FF 00 FF FF FF
  77.113072 2  1CEFFA03x    Rx   d 8 AD 29 DA 0A A2 03 A2 03
   77.11336 2  18FECA03x    Rx   d 8 00 FF 00 00 00 00 FF FF
   77.11384 1  0CF00426x    Rx   d 8 F1 FF D6 90 44 FF F4 FF
   77.11464 2  1CE6EA26x    Rx   d 8 A8 40 04 00 EA 02 00 00
  77.114704 1  0CF00426x    Rx   d 8 F1 FF D6 90 44 FF F4 FF
  77.115184 2  0CFFF331x    Rx   d 8 31 C0 2B FF FF FF FF F9
  77.115664 2  14FFFEEAx    Rx   d 8 43 EA 02 00 00 FF FF FF
   77.11608 2  0CF00400x    Rx   d 8 F1 FF D6 7A 44 FF F4 FF
  77.116624 2  18E726EAx    Rx   d 8 A8 40 04 FF EB 02 00 00
  77.116912 2  18FEDF00x    Rx   d 8 86 C0 44 FF FF FF FF 05
  77.117168 2  1CEFFA03x    Rx   d 8 AD 01 00 00 22 00 4B 11
  77.117456 2  1CEFFA03x    Rx   d 8 AD 02 3F 2A 3F 2A 49 2A
  77.117744 2  1CEFFA03x    Rx   d 8 AD 03 0B 2A 06 27 3F 2A
     77.118 2  1CEFFA03x    Rx   d 8 AD 29 DA 0A A2 03 A2 03
  77.118128 1  18EFFF26x    Rx   d 8 4F 09 FF FF BE 05 FF FF
  77.118416 1  1CE726EDx    Rx   d 8 FF FF FF FF FF FF FF FF
  77.118512 2  14FFFA26x    Rx   d 8 07 13 13 01 4D 01 00 01
  77.118704 1  18FFF426x    Rx   d 8 29 FF 1F FF FF FF FF FF
  77.118832 2  14FFFA26x    Rx   d 8 07 14 7A 01 7B 01 F4 FF
   77.11912 2  14FFFA26x    Rx   d 8 07 15 F0 F1 41 00 06 02
  77.119408 2  0CFF18EBx    Rx   d 8 80 14 00 07 40 07 07 FF
  77.119696 2  14FFFA26x    Rx   d 8 07 16 F0 FF FF FF FF FF
  77.119984 2  18E726EBx    Rx   d 8 A8 23 05 FF 01 00 00 00
  77.120592 2  18EF00FAx    Rx   d 8 B5 C0 F8 05 CF 02 FF FF
  77.122032 1  10FF641Cx    Rx   d 8 C0 17 1C 01 03 00 A0 A7
  77.122288 1  0CFEF31Cx    Rx   d 8 96 8C 00 96 F2 54 CB 47
  77.122576 2  18FFF831x    Rx   d 8 28 11 FF FF FF FF FF FF
  77.122832 1  10FF641Cx    Rx   d 8 C1 1D 3B 50 C1 D0 04 84
   77.12312 1  0CFEE61Cx    Rx   d 8 2F 34 14 0A 28 26 FF F9
  77.123376 2  18FFFF31x    Rx   d 8 06 FF FF FF FF FF FF 3F
  77.123664 1  10FF641Cx    Rx   d 8 C2 FC 07 80 80 04 00 00
  77.123856 2  18FFF426x    Rx   d 8 6B FF 2F 12 00 52 FF FF
   77.12392 1  0CFEE81Cx    Rx   d 8 D6 2C 6B 07 BE 63 94 54
  77.124208 1  10FF641Cx    Rx   d 8 C3 00 E8 28 E6 03 FF FF
  77.124336 2  08EFFFEBx    Rx   d 8 F8 0B 5E 01 FF FF F1 07
  77.124496 1  0CFFFF1Cx    Rx   d 8 51 03 02 20 08 05 06 04
  77.124592 2  14EFFFEBx    Rx   d 8 64 4A 43 04 8F 89 FE FF
  77.124816 1  0CFFFF1Cx    Rx   d 8 52 0E 80 00 CB A4 B6 58
   77.12488 2  18FEF326x    Rx   d 8 96 8C 00 96 F2 54 CB 47
  77.125136 1  0CFFFF1Cx    Rx   d 8 53 0D A7 5A 10 55 41 54
    77.1252 2  1CE6EA26x    Rx   d 8 A8 40 04 00 EB 02 00 00
  77.125456 1  0CFFFF1Cx    Rx   d 8 A0 D4 C3 C4 02 FF FF FF
  77.125488 2  1CE6EB26x    Rx   d 8 A8 23 05 00 01 00 00 00
  77.125776 2  0CFF1B31x    Rx   d 8 27 C0 AE 01 E0 0D 00 00
  77.126032 1  0CFFFF1Cx    Rx   d 8 54 D4 00 0A 6A 00 BC 51
   77.12632 2  0CFE4831x    Rx   d 8 FF FF FF FF FF FF FF F7
  77.126576 1  18FFFAD3x    Rx   d 8 00 31 07 FF FF FF FF FF
  77.126864 2  08FFFAEAx    Rx   d 8 00 32 F2 00 00 FF FF FF
   77.12712 1  0CFFFF1Cx    Rx   d 8 E3 FF FF FF FC 02 FF 51
  77.127408 1  0CF00426x    Rx   d 8 F1 FF D6 7A 44 FF F4 FF
  77.127664 2  18EFFA00x    Rx   d 8 00 00 00 00 00 35 B8 AF
   77.12792 1  0CFFFF1Cx    Rx   d 8 E1 DF C7 63 13 64 FF 22
  77.127952 2  0CEFFF00x    Rx   d 8 64 06 17 82 C0 FA 9A 00
  77.128208 1  18FFFF26x    Rx   d 8 06 FF FF FF FF FF FF 3F
   77.12824 2  0CF00300x    Rx   d 8 FF FE 5D FF FF FF C0 FF
  77.128496 2  0CF00400x    Rx   d 8 F1 FF D6 96 44 FF F4 FF
  77.128784 2  18EFFA00x    Rx   d 8 01 D9 00 00 00 00 00 00
  77.129104 2  18EFFA00x    Rx   d 8 02 00 00 00 00 00 00 3B
  77.129392 2  18FEF200x    Rx   d 8 85 05 FF FF FF FF FF FF
  77.129648 2  18EFFA00x    Rx   d 8 03 A5 1F D2 3E 45 69 A4
  77.129936 2  1CE6EB26x    Rx   d 8 05 23 05 FF 04 00 00 00
  77.130224 2  1CEFFA03x    Rx   d 8 AD 01 00 00 22 00 4B 11
  77.130512 2  18E726EBx    Rx   d 8 05 23 05 FF 04 00 00 00
    77.1308 2  18EFFA00x    Rx   d 8 04 00 03 9F 94 40 29 00
  77.131056 2  0CF0045Bx    Rx   d 8 F1 FF D6 96 44 FF F4 FF
  77.131376 2  0CFFFF26x    Rx   d 8 51 03 02 20 08 05 06 04
  77.131632 2  1CEFFA03x    Rx   d 8 AD 02 3F 2A 3F 2A 48 2A
  77.131888 2  18EFFA00x    Rx   d 8 05 E8 43 2B AD 94 00 00
  77.132176 2  18FEE826x    Rx   d 8 D6 2C 6B 07 BE 63 94 54
  77.132368 1  18EFFF26x    Rx   d 8 F8 0B 5E 01 FF FF F1 07
  77.132464 2  1CEFFA03x    Rx   d 8 AD 03 0B 2A 07 27 3F 2A
  77.132752 2  18EFFA00x    Rx   d 8 06 00 00 44 52 14 60 3F
   77.13304 2  18EFFF06x    Rx   d 8 F8 20 F2 FF FF FF FF FF
  77.133328 2  18EFFA00x    Rx   d 8 07 46 9A A7 00 00 00 00
  77.133584 2  18EFFA00x    Rx   d 8 08 40 02 29 AA 3D 21 D1
  77.133872 2  18EFFA00x    Rx   d 8 09 65 3D 2C F8 FD 3F 40
  77.134128 2  18FFFF26x    Rx   d 8 53 0D A7 5A 10 55 41 54
  77.134416 2  1CEFFA03x    Rx   d 8 AD 12 88 A2 00 80 CE 29
  77.134704 2  18EFFA00x    Rx   d 8 0A 2B 00 3F 66 75 80 3F
  77.134992 2  18EFFA00x    Rx   d 8 0B 69 EE 55 3E 86 D4 00
   77.13528 2  18FFFA26x    Rx   d 8 00 31 07 FF FF FF FF FF
  77.135568 2  1CEFFA03x    Rx   d 8 AD 1B 01 00 04 00 01 00
  77.135824 2  08FFFF26x    Rx   d 8 E1 DF C7 63 13 64 FF 22
  77.136112 2  18EFFA00x    Rx   d 8 0C 3D B4 EC 00 3D C8 A4
    77.1364 2  1CEFFA03x    Rx   d 8 AD 1D 15 00 00 00 02 00
  77.136656 2  18EFFA00x    Rx   d 8 0D 00 42 C9 51 A9 C2 77
  77.136944 2  18FFF426x    Rx   d 8 02 C1 00 EA 00 FF FF FF
  77.137232 2  14FFFEEAx    Rx   d 8 47 8E 01 5F 00 6D 7D FF
   77.13752 2  14FFFFEAx    Rx   d 8 16 FF 62 5E 00 00 EC 38
  77.137808 2  18FFF426x    Rx   d 8 03 6E 01 81 01 FF FF FF
  77.138064 2  18E726EAx    Rx   d 8 A8 40 04 FF EC 02 00 00
  77.138352 2  18FFF826x    Rx   d 8 C2 FF FF 2F 02 69 07 FF
   77.13864 2  18FFFF31x    Rx   d 8 09 FF FF FF FF F3 FF FF
  77.138928 2  18FFF826x    Rx   d 8 C3 FF FF 08 02 EE 02 FF
  77.139216 2  1CEFFA03x    Rx   d 8 AD 1E 5D 0A FC 01 F2 01
  77.139504 2  08FFFBEAx    Rx   d 8 FB 02 00 EB 02 FF FF FF
  77.139792 2  18EFFA00x    Rx   d 8 0E 80 00 43 CA 5F D5 43
  77.139984 1  18FFF42Ax    Rx   d 8 5D 53 FA C9 7C 1A 64 FF
  77.140048 2  18EFFFD4x    Rx   d 8 EA 00 37 C8 BC B0 D7 4A
  77.140304 1  0CAD262Ax    Rx   d 8 8B 7D FD FF FF FF FF FF
  77.140336 2  18FFF826x    Rx   d 8 C4 FF FF 56 01 A6 01 FF
  77.140592 1  0CFFF42Ax    Rx   d 8 64 2A 46 30 00 FA 45 25
  77.140624 2  1CEFFA03x    Rx   d 8 AD 1F 21 0B 00 00 12 00
  77.140912 2  18EFFA00x    Rx   d 8 0F CD 96 E8 44 B1 51 90
  77.141168 1  1CEFFA2Ax    Rx   d 8 AD 0A 00 64 00 64 00 7D
  77.141424 2  14EFFF5Bx    Rx   d 8 64 53 FF FF 40 03 66 F1
  77.141488 1  1CEFFA2Ax    Rx   d 8 AD 01 F9 7C 00 7D 20 7D
  77.141712 2  0CADFF26x    Rx   d 8 8B 7D FD FF FF FF FF FF
  77.142032 2  10FF145Bx    Rx   d 8 FF FF FF FF FF FF FF F3
  77.142288 1  1CEFFA2Ax    Rx   d 8 AD 07 3B 64 F7 63 32 64
  77.142544 2  18EFFA00x    Rx   d 8 10 26 09 2A 08 42 B9 43
  77.142576 1  1CEFFA2Ax    Rx   d 8 AD 06 F1 63 29 64 00 64
  77.142832 2  18FFF426x    Rx   d 8 5D 53 FA C9 7C 1A 64 FF
  77.143088 2  1CEFFA03x    Rx   d 8 AD 20 E9 00 32 00 00 A2
  77.143152 1  1CEFFA2Ax    Rx   d 8 AD 03 88 66 54 64 00 64
  77.143376 2  18EFFA00x    Rx   d 8 11 50 44 A2 C5 19 00 25
  77.143472 1  1CEFFA2Ax    Rx   d 8 AD 02 3E 64 5E 64 FE 63
  77.143664 2  0CF00400x    Rx   d 8 F1 FF D6 A2 44 FF F4 FF
   77.14376 1  1CEFFA2Ax    Rx   d 8 AD 08 00 64 00 64 00 64
  77.143952 2  18EFFA00x    Rx   d 8 12 33 FB 41 58 44 A1 41
   77.14424 2  18EFFA00x    Rx   d 8 13 C8 D0 B6 3E 24 0B F2
  77.144336 1  1CFFF42Ax    Rx   d 8 5B 05 7D 1A 64 01 80 96
  77.144528 2  10FFFA86x    Rx   d 8 00 2B 01 FF FF FF FF FF
  77.144624 1  1CFFF42Ax    Rx   d 8 5C 4A 29 A5 14 03 64 64
  77.144784 2  18EFFA00x    Rx   d 8 14 3E 36 47 46 3E 35 AF
  77.145072 2  18FFF426x    Rx   d 8 64 2A 46 30 00 FA 45 25
   77.14536 2  1CEFFA03x    Rx   d 8 AD 21 00 FF 00 FF FF FF
  77.145648 2  18EFFA00x    Rx   d 8 15 09 3E 0C 47 54 3E 3D
  77.145904 2  1CE6EA26x    Rx   d 8 A8 40 04 00 EC 02 00 00
  77.146192 2  0CEFFFEBx    Rx   d 8 F2 25 FA FF FF FF FF FF
   77.14648 2  14EFFFEBx    Rx   d 8 64 45 9F 01 00 00 A2 01
  77.146768 2  1CEFFA03x    Rx   d 8 AD 29 DA 0A A2 03 A2 03
  77.147024 2  18EFFA00x    Rx   d 8 16 F5 42 43 B8 EA EE 43
  77.147312 2  1CEFFA03x    Rx   d 8 AD 01 00 00 22 00 4C 11
    77.1476 2  18EFFA00x    Rx   d 8 17 BC 82 EB 41 C4 F0 3C
  77.147888 2  18EFFFF2x    Rx   d 8 FC 04 8E 00 64 00 FF FF
  77.148144 2  1CEFFA03x    Rx   d 8 AD 02 3F 2A 3F 2A 47 2A
  77.148208 1  0CF00426x    Rx   d 8 F1 FF D6 96 44 FF F4 FF
  77.148464 2  18EFFA00x    Rx   d 8 18 3F 81 E0 07 41 AF A5
  77.148528 1  0CF00426x    Rx   d 8 F1 FF D6 96 44 FF F4 FF
   77.14872 2  18E726EAx    Rx   d 8 A8 40 04 FF EA 02 00 00
  77.149008 2  18EFFA00x    Rx   d 8 19 19 44 BF BA E1 44 C7
  77.149296 2  18EFFA00x    Rx   d 8 1A A8 00 43 7A 00 00 40
  77.149584 2  1CEFFA03x    Rx   d 8 AD 03 0C 2A 08 27 3F 2A
   77.14984 2  18EFFA00x    Rx   d 8 1B 85 A3 00 40 16 8D CB
  77.150128 2  1CEFFA03x    Rx   d 8 AD 29 DA 0A A2 03 A2 03
  77.150416 2  18EFFA00x    Rx   d 8 1C 41 CF 2F F0 41 CE 6B
  77.150704 2  1CFFF800x    Rx   d 8 73 15 00 FA F8 FF FF FF
  77.150736 1  18EFFF26x    Rx   d 8 64 53 FF FF 40 03 66 F1
   77.15096 2  18EFFA00x    Rx   d 8 1D A8 41 CE 32 57 3F DF
  77.151024 1  0CF00426x    Rx   d 8 F1 FF D6 A2 44 FF F4 FF
  77.151248 2  1CFFF831x    Rx   d 8 85 08 4D FF FF FF FF FC
  77.151344 1  18EFFF26x    Rx   d 8 64 45 9F 01 00 00 A2 01
  77.151536 2  18EFFA00x    Rx   d 8 1E 78 50 00 00 00 00 41
  77.151824 2  0CF0045Bx    Rx   d 8 F1 FF D6 9E 44 FF F4 FF
  77.152112 2  18EFFA00x    Rx   d 8 1F 27 A1 51 C1 C8 00 00
    77.1524 2  18EFFA00x    Rx   d 8 20 C1 CD 7C 60 41 AB EC
  77.152528 1  0CFFFECCx    Rx   d 8 8B FF FF FF FF FF FF FF
  77.152688 2  18EFFA00x    Rx   d 8 21 2D 00 00 00 00 00 00
  77.152816 1  0CEF00CCx    Rx   d 8 6E FF FF FF FF FF FF FF
  77.152976 2  18EFFA00x    Rx   d 8 22 00 00 00 00 00 00 00
  77.153104 1  0CFFFBD1x    Rx   d 8 00 62 FF FF FF FF FF FF
  77.153264 2  18EFFA00x    Rx   d 8 23 00 00 00 00 00 00 00
  77.153392 1  0CFE0AD1x    Rx   d 8 FF FF FF FF FF FF FF FF
  77.153552 2  18EFFA00x    Rx   d 8 24 42 79 E9 72 42 92 2B
   77.15368 1  0CF022D1x    Rx   d 8 FF FF FF FF FF FF FF FF
   77.15384 2  0CEFFF00x    Rx   d 8 64 06 17 82 C1 FA 9A 00
     77.154 1  18FFF8D1x    Rx   d 8 20 FF FF FF FF FF FF FF
  77.154128 2  0CF00300x    Rx   d 8 FF FE 5D FF FF FF C1 FF
  77.154288 1  0CFFFED1x    Rx   d 8 8B FF FF FF FF FF FF FF
  77.154416 2  0CF00400x    Rx   d 8 F1 FF D6 9E 44 FF F4 FF
  77.154576 1  0CEF00D1x    Rx   d 8 6E FF FF FF FF FF FF FF
  77.154704 2  18EFFA00x    Rx   d 8 25 70 43 A5 1A F8 3E 1B
  77.154992 2  18EFFF00x    Rx   d 8 F8 21 04 00 00 00 1E 00
  77.155248 2  18EFFA00x    Rx   d 8 26 A5 E4 42 DE 38 52 42
  77.155536 2  1CEFFA03x    Rx   d 8 AD 00 8D D9 D9 AA F9 F9
  77.155824 2  18EFFA00x    Rx   d 8 27 57 80 00 44 0A 00 B2
   77.15608 2  1CEFFA03x    Rx   d 8 AD 01 00 00 22 00 4B 11
  77.156368 2  18EFFA00x    Rx   d 8 28 43 C3 9C 00 43 BC 7C
  77.156656 2  1CEFFA03x    Rx   d 8 AD 02 3F 2A 3F 2A 47 2A
  77.156912 2  18EFFA00x    Rx   d 8 29 00 40 48 76 EA 43 BE
    77.1572 2  18EFFA00x    Rx   d 8 2A 7C 9E 43 BC AF EA 00
  77.157488 2  0CFFF331x    Rx   d 8 31 C0 2B FF FF FF FF F9
  77.157776 2  18EFFA26x    Rx   d 8 AD 09 ED 7A F0 7C 67 72
  77.158032 2  1CEFFA03x    Rx   d 8 AD 03 0C 2A 08 27 3F 2A
   77.15832 2  18EFFA00x    Rx   d 8 2B 00 00 00 00 00 00 00
  77.158608 2  18EFFA26x    Rx   d 8 AD 0B EA 7A 25 7C 00 00
  77.158896 2  1CEFFA03x    Rx   d 8 AD 04 DD 26 10 27 01 04
  77.159184 2  18EFFA00x    Rx   d 8 2C 01 00 00 00 3D 4F 20
   77.15944 2  18EFFA26x    Rx   d 8 AD 11 4D 00 CB 04 DA 03
  77.159728 2  1CEFFA03x    Rx   d 8 AD 05 29 27 10 27 10 27
  77.160016 2  18EFFA00x    Rx   d 8 2D 28 00 00 00 00 42 E9
  77.160272 2  18EFFA26x    Rx   d 8 AD 89 26 78 BC 75 61 76
   77.16056 2  1CEFFA03x    Rx   d 8 AD 07 00 15 51 8D 7D 64
  77.160816 2  18EFFA00x    Rx   d 8 2E 57 61 43 26 41 75 42
   77.16088 1  0CF00426x    Rx   d 8 F1 FF D6 9E 44 FF F4 FF
  77.161136 2  18EFFF31x    Rx   d 8 F4 19 FF FF FF FF FF FF
  77.161168 1  0CF00426x    Rx   d 8 F1 FF D6 9E 44 FF F4 FF
  77.161392 2  18FFFA26x    Rx   d 8 07 00 0F 06 D5 09 B3 07
   77.16168 2  1CEFFA03x    Rx   d 8 AD 0A FF FF A1 A2 00 C4
  77.161968 2  10FD925Bx    Rx   d 8 F4 FF FF FF FF FF FF FF
  77.162256 2  0CFF18EBx    Rx   d 8 80 2C 00 01 40 07 01 FF
  77.162544 2  18E726EBx    Rx   d 8 A8 23 05 FF 01 00 00 00
    77.1628 2  18EFFA00x    Rx   d 8 2F FE AA E1 42 D9 9B 28
   77.16312 2  18FFFB5Bx    Rx   d 8 00 05 E3 FF FF FF FF FF
  77.163376 2  1CE6EA26x    Rx   d 8 A8 40 04 00 EA 02 00 00
  77.163664 2  1CEFFA03x    Rx   d 8 AD 0B FF FF 00 72 FF FF
  77.163952 2  18E726EAx    Rx   d 8 A8 40 04 FF E9 02 00 00
   77.16424 2  18EFFA00x    Rx   d 8 30 42 F1 F1 B3 42 DE 89
  77.164496 2  18FFF886x    Rx   d 8 9B 00 7D 3B 64 80 1A 00
  77.164784 2  1CEFFA03x    Rx   d 8 AD 12 C4 A2 00 80 CF 29
   77.16504 2  18EFFA00x    Rx   d 8 31 54 44 0C 69 82 40 94
  77.165328 2  1CEFFA03x    Rx   d 8 AD 13 08 23 00 00 00 00
  77.165616 2  18EFFA00x    Rx   d 8 32 C0 E2 40 0E 0D DB 00
  77.165904 2  14EFFFEBx    Rx   d 8 64 46 86 01 FF FF 00 00
   77.16616 2  1CEFFA03x    Rx   d 8 AD 14 B8 C7 00 4B 11 28
  77.166448 2  18EFFA00x    Rx   d 8 33 00 00 00 43 BE 7C 9E
  77.166736 2  1CEFFA03x    Rx   d 8 AD 16 0A 3C 7F 04 04 03
  77.167024 2  0CF00400x    Rx   d 8 F1 FF D6 BE 44 FF F4 FF
  77.167312 2  0CF02300x    Rx   d 8 B1 23 F2 FF FF 70 FF FF
    77.1676 2  08FEF103x    Rx   d 8 FF BE 07 CF FF FF FF FF
  77.167856 2  10FFFF31x    Rx   d 8 EA FF 8B 61 EF 4D 84 0F
  77.168144 2  18EFFA00x    Rx   d 8 34 00 00 00 00 43 B0 0B
  77.168432 2  1CEFFA03x    Rx   d 8 AD 1B 01 00 04 00 01 00
   77.16872 2  18EFFA00x    Rx   d 8 35 86 00 00 00 00 3E 41
  77.169008 2  1CEFFA03x    Rx   d 8 AD 1D 15 00 00 00 02 00
  77.169296 2  18EFFA00x    Rx   d 8 36 4A 66 41 E0 00 00 3F
  77.169584 2  1CEFFA03x    Rx   d 8 AD 1E 5D 0A FC 01 F2 01
  77.169872 2  18EFFA00x    Rx   d 8 37 59 9D D4 44 62 24 E7
   77.17016 2  1CEFFA03x    Rx   d 8 AD 1F 21 0B 00 00 12 00
  77.170448 2  18EFFA00x    Rx   d 8 38 3E A5 1E B8 42 3D BF
  77.170704 2  18EFFA00x    Rx   d 8 39 EE 44 46 B9 49 3F 41
  77.170896 1  0CFFF826x    Rx   d 8 9B 00 7D 3B 64 80 1A 00
  77.170992 2  18EFFF31x    Rx   d 8 F1 07 CC CC 00 00 CC CC
   77.17128 2  18EFFF31x    Rx   d 8 F0 02 CC 00 30 F0 FF FF
  77.171536 2  1CE6EB26x    Rx   d 8 A8 23 05 00 01 00 00 00
  77.171856 2  08FFFAAEx    Rx   d 8 01 58 00 FF FF FF FF FF
  77.172112 2  0CF0045Bx    Rx   d 8 F1 FF D6 B0 44 FF F4 FF
  77.172336 1  10FD9226x    Rx   d 8 F4 FF FF FF FF FF FF FF
    77.1724 2  1CE6EA26x    Rx   d 8 A8 40 04 00 E9 02 00 00
  77.172624 1  18EFFF26x    Rx   d 8 64 46 86 01 FF FF 00 00
  77.172688 2  1CEFFA03x    Rx   d 8 AD 20 E9 00 49 00 00 A2
  77.172976 2  18E726EAx    Rx   d 8 A8 40 04 FF E8 02 00 00
  77.173232 2  18EFFA00x    Rx   d 8 3A BA C0 3E BC 4C 32 3E
   77.17352 2  1CE6EB26x    Rx   d 8 05 23 05 FF 04 00 00 00
  77.173808 2  1CEFFA03x    Rx   d 8 AD 21 00 FF 00 FF FF FF
  77.174096 2  18E726EBx    Rx   d 8 05 23 05 FF 04 00 00 00
  77.174384 2  18EFFA00x    Rx   d 8 3B 63 94 0E 3D 1C 12 2B
   77.17464 2  1CEFFA03x    Rx   d 8 AD 29 DA 0A A2 03 A2 03
  77.174928 2  18EFFA00x    Rx   d 8 3C 3E 44 FA 2B 44 02 CA
  77.175216 2  1CEFFA03x    Rx   d 8 AD 01 00 00 22 00 4A 10
  77.175472 2  18EFFA00x    Rx   d 8 3D 8D 46 8F 0E BE 42 BB
  77.175792 2  1CEFFA03x    Rx   d 8 AD 02 3F 2A 3F 2A 48 2A
   77.17608 2  18EFFA00x    Rx   d 8 3E 47 4A 43 4D 17 F9 43
  77.176208 1  0CF00426x    Rx   d 8 F1 FF D6 BE 44 FF F4 FF
  77.176368 2  18EFFFEBx    Rx   d 8 64 90 05 00 00 00 FF FF
  77.176528 1  08FEF126x    Rx   d 8 FF BE 07 CF FF FF FF FF
  77.176624 2  18EFFFEBx    Rx   d 8 64 91 0B 00 03 00 03 00
  77.176816 1  0CF00426x    Rx   d 8 F1 FF D6 B0 44 FF F4 FF
  77.176912 2  1CEFFA03x    Rx   d 8 AD 03 0A 2A 07 27 3F 2A
    77.1772 2  18EFFA00x    Rx   d 8 3F C4 E9 E6 43 29 E0 4E
  77.177456 2  0CFF1B31x    Rx   d 8 27 BD AE FF FF E9 00 00
  77.177776 2  18FE47EAx    Rx   d 8 FF FF FF FF FF FF FF FF
  77.178064 2  18FFFB26x    Rx   d 8 F9 01 02 B3 07 FF FF FF
   77.17832 2  1CEFFA03x    Rx   d 8 AD 29 DA 0A A2 03 A2 03
  77.178608 2  18EFFA00x    Rx   d 8 40 43 AE F2 27 42 BA 8C
  77.178896 2  1CFFFAEBx    Rx   d 8 00 2D FE 0B FF FF FF FF
  77.179152 2  18EFFA00x    Rx   d 8 41 00 42 2A C5 BF 3E 4C
   77.17944 2  18EFFA00x    Rx   d 8 42 CA 5B 43 B8 3E A5 3E
  77.179728 2  08FFFBEAx    Rx   d 8 FB 02 00 E7 02 FF FF FF
  77.180016 2  18EFFA00x    Rx   d 8 43 4D 40 00 43 83 69 6D
  77.180304 2  0CEFFF00x    Rx   d 8 64 06 14 82 C1 FA 9A 00
  77.180592 2  0CF00300x    Rx   d 8 FF FE 5C FF FF FF C1 FF
   77.18088 2  0CF00400x    Rx   d 8 F1 FF D6 B0 44 FF F4 FF
  77.181168 2  0CFE48D4x    Rx   d 8 FF FF FF FF FF FF FF FF
  77.181424 2  18EFFA00x    Rx   d 8 44 3D 86 63 3D 43 A3 9A
  77.181712 2  18EFFFD4x    Rx   d 8 EA 00 37 C7 BD B0 D7 4A
     77.182 2  08EFFF5Bx    Rx   d 8 64 57 2F FF FF 00 00 FF
  77.182288 2  08FFFBEAx    Rx   d 8 FB 02 12 00 00 FF FF FF
  77.182544 2  18EFFF00x    Rx   d 8 64 10 0F 0F 66 33 17 3D
  77.182832 2  1CE6EA26x    Rx   d 8 A8 40 04 00 E8 02 00 00
   77.18312 2  18EFFA00x    Rx   d 8 45 CE 43 C3 19 F5 43 A4
  77.183376 2  18E726EAx    Rx   d 8 A8 40 04 FF E7 02 00 00
  77.183664 2  18EFFA00x    Rx   d 8 46 88 AE 43 C3 2F 25 C2
   77.18392 2  1CEFFA5Bx    Rx   d 8 AD 04 E9 35 16 14 81 13
   77.18424 2  08FFFAADx    Rx   d 8 01 58 00 FF FF FF FF FF
  77.184528 2  18FFFA26x    Rx   d 8 00 24 00 FF FF FF FF FF
  77.184816 2  1CEFFA03x    Rx   d 8 AD 01 00 00 22 00 4A 11
  77.185072 2  1CEFFA5Bx    Rx   d 8 AD 05 4F 35 5D 35 8D 35
   77.18536 2  18EFFA00x    Rx   d 8 47 75 33 B8 3F 80 00 00
  77.185648 2  1CEFFA5Bx    Rx   d 8 AD 06 7F 35 4F 35 00 00
  77.185904 2  1CEFFA03x    Rx   d 8 AD 02 3F 2A 3F 2A 48 2A
  77.186192 2  1CEFFA5Bx    Rx   d 8 AD 07 DB 35 33 35 00 00
  77.186448 2  18EFFA00x    Rx   d 8 48 3F 91 90 E3 3F C4 A4
  77.186736 2  1CE6EA26x    Rx   d 8 A8 40 04 00 E7 02 00 00
  77.187024 2  1CEFFA03x    Rx   d 8 AD 03 0A 2A 07 27 3F 2A
  77.187312 2  18EFFA00x    Rx   d 8 49 1C 00 08 60 50 00 00
    77.1876 2  18EFFF06x    Rx   d 8 F8 20 F2 FF FF FF FF FF
  77.187888 2  18EFFA00x    Rx   d 8 4A 00 00 3F D4 E1 54 3F
  77.188144 2  18EFFA00x    Rx   d 8 4B 81 3F A3 3F 80 00 00
  77.188464 2  18FFF831x    Rx   d 8 30 FF FF FF FF FF FF FF
   77.18872 2  18E726EAx    Rx   d 8 A8 40 04 FF E9 02 00 00
  77.189008 2  1CEFFA03x    Rx   d 8 AD 06 7D 7D 00 7D D9 28
  77.189136 1  0CF00426x    Rx   d 8 F1 FF D6 B0 44 FF F4 FF
  77.189296 2  18EFFA00x    Rx   d 8 4C 3F 9A 37 69 3F 85 68
  77.189584 2  1CEFFA03x    Rx   d 8 AD 08 8D 04 FF FF FF FF
  77.189872 2  18EFFA00x    Rx   d 8 4D C0 BF 4A 2C 89 3F 80
  77.190128 2  1CEFFA03x    Rx   d 8 AD 09 64 8E 00 8C 67 93
  77.190384 2  18EFFA00x    Rx   d 8 4E 8C BF C0 35 C2 07 3F
  77.190672 2  18EFFA00x    Rx   d 8 4F 6E 8E A5 41 BA 36 92
   77.19096 2  1CEFFA03x    Rx   d 8 AD 0C 6B 20 FF DD A4 10
  77.191248 2  18EFFA00x    Rx   d 8 50 00 00 80 01 04 20 00
  77.191504 2  0CF0045Bx    Rx   d 8 F1 FF D6 A6 44 FF F4 FF
  77.191792 2  18EFFF5Bx    Rx   d 8 64 A4 F0 FF FF FF FF FF
   77.19208 2  0CFFEC5Bx    Rx   d 8 FF FF FF FF FF FF FF FF
  77.192368 2  18EFFA26x    Rx   d 8 AD 43 1D 18 00 00 16 17
  77.192528 1  0CFE0ACCx    Rx   d 8 FF FF FF FF FF FF FF FF
  77.192656 2  08FFFA5Bx    Rx   d 8 00 22 05 F3 23 0A FF FF
  77.192816 1  0CF022CCx    Rx   d 8 FF FF FF FF FF FF FF FF
  77.192912 2  1CE6EA26x    Rx   d 8 A8 40 04 00 E9 02 00 00
  77.193136 1  0CFFFED1x    Rx   d 8 8B FF FF FF FF FF FF FF
    77.1932 2  18FFF486x    Rx   d 8 6C FF FF FF FF FF FF FF
  77.193392 1  0CEF00D1x    Rx   d 8 6E FF FF FF FF FF FF FF
  77.193488 2  1CEFFA03x    Rx   d 8 AD 0D EA 14 34 12 FF FF
  77.193712 1  18FFF8CCx    Rx   d 8 20 FF FF FF FF FF FF FF
  77.193776 2  18EFFA00x    Rx   d 8 51 0A 3F 11 F5 4B 3F 11
     77.194 1  0CFFFECCx    Rx   d 8 8B FF FF FF FF FF FF FF
  77.194064 2  1CEFFA03x    Rx   d 8 AD 0F 00 FF 15 00 00 00
  77.194288 1  0CEF00CCx    Rx   d 8 6E FF FF FF FF FF FF FF
   77.19432 2  18EFFA00x    Rx   d 8 52 0C 19 3F 6C 84 B7 3F
  77.194608 2  1CEFFA03x    Rx   d 8 AD 12 C0 A2 00 80 CD 29
  77.194896 2  18EFFA00x    Rx   d 8 53 6B 27 23 3E C5 D4 C4
  77.195184 2  18FFFE31x    Rx   d 8 FD FB FB FB FB FF FF FF
  77.195472 2  1CEFFA03x    Rx   d 8 AD 15 40 00 16 06 FF FF
  77.195728 2  18EFFA00x    Rx   d 8 54 BD C4 59 D0 3E 54 3C
  77.195888 1  0CF00426x    Rx   d 8 F1 FF D6 A6 44 FF F4 FF
  77.196016 2  0CF00400x    Rx   d 8 F1 FF D6 BC 44 FF F4 FF
  77.196304 2  18EFFA00x    Rx   d 8 55 C0 00 00 00 00 00 00
  77.196592 2  18EFFA00x    Rx   d 8 56 00 00 00 00 00 00 00
   77.19688 2  1CEFFA03x    Rx   d 8 AD 17 81 04 7F 04 00 00
  77.197168 2  18EFFA00x    Rx   d 8 57 00 00 08 00 0D 3C AA
  77.197456 2  0CFFF331x    Rx   d 8 31 C3 2B FF FF FF FF F9
  77.197744 2  1CEFFA03x    Rx   d 8 AD 1A 71 02 00 00 00 00
     77.198 2  18EFFA00x    Rx   d 8 58 22 60 80 00 23 9F 02
   77.19832 2  10FFFE19x    Rx   d 8 0B FF FF 23 FC 00 FF FF
  77.198576 2  18E726EAx    Rx   d 8 A8 40 04 FF EA 02 00 00
  77.198864 2  1CEFFA03x    Rx   d 8 AD 1B 01 00 04 00 01 00
  77.199152 2  18EFFA00x    Rx   d 8 59 58 1F 26 12 B6 00 00
   77.19944 2  1CEFFA03x    Rx   d 8 AD 1C 00 00 00 00 01 00
  77.199728 2  18EFFA00x    Rx   d 8 5A 02 81 3A E5 04 54 29
  77.199984 2  1CEFFA03x    Rx   d 8 AD 1D 15 00 00 00 02 00
  77.200272 2  18EFFA00x    Rx   d 8 5B 2B 02 91 03 14 05 4D
   77.20056 2  18EFFA00x    Rx   d 8 5C 16 3C 01 5C 0C 53 00
  77.200848 2  0CACFF13x    Rx   d 8 8D 7D 14 1F C0 FF FF FF
  77.201104 2  18EFFA00x    Rx   d 8 5D EC 22 4F 0F 11 00 00
  77.201392 2  18EFFFD4x    Rx   d 8 EA 01 33 F0 0F F5 FF FF
   77.20168 2  18FFF413x    Rx   d 8 63 FA 6B 07 53 E1 FF FF
  77.201968 2  08FEF15Bx    Rx   d 8 FF BE 07 CF FF FF FF FF
  77.202256 2  0CFF18EBx    Rx   d 8 80 17 00 02 40 07 02 FF
  77.202544 2  08FFFA5Bx    Rx   d 8 00 21 1F 2F 50 2D FF FE
  77.202832 2  18E726EBx    Rx   d 8 A8 23 05 FF 01 00 00 00
   77.20312 2  18EFFA00x    Rx   d 8 5E 00 00 0E 7C 21 A1 32
  77.203376 2  1CEFFA03x    Rx   d 8 AD 1E 5D 0A FC 01 F2 01
  77.203664 2  18EFFA00x    Rx   d 8 5F 6C 32 6C 21 DB 00 10
  77.203952 2  1CEFFA03x    Rx   d 8 AD 1F 21 0B 00 00 06 00
   77.20424 2  18EFFA00x    Rx   d 8 60 02 02 00 00 00 00 00
  77.204528 2  1CEFFA03x    Rx   d 8 AD 20 E9 00 32 00 00 A2
  77.204816 2  18EFFA00x    Rx   d 8 61 00 00 00 00 00 00 00
  77.205104 2  1CEFFA03x    Rx   d 8 AD 21 00 FF 00 FF FF FF
  77.205392 2  18EFFA00x    Rx   d 8 62 01 00 00 00 46 04 00
   77.20568 2  1CEFFA03x    Rx   d 8 AD 29 DA 0A A2 03 A2 03
  77.205968 2  08EFFFEBx    Rx   d 8 64 48 FF FF FF FD FF FF
  77.206128 1  0CACFF26x    Rx   d 8 8D 7D 14 1F C0 FF FF FF
  77.206256 2  18EFFA00x    Rx   d 8 63 00 00 00 07 00 00 00
  77.206544 2  18FFF4EBx    Rx   d 8 6E 11 72 11 F0 FF FF FF
    77.2068 2  1CE6EA26x    Rx   d 8 A8 40 04 00 EA 02 00 00
  77.207088 2  1CEFFA03x    Rx   d 8 AD 01 00 00 22 00 4A 11
  77.207376 2  18FFFF31x    Rx   d 8 87 FF 00 FF FF FF FF FF
  77.207664 2  1CEFFA03x    Rx   d 8 AD 02 3F 2A 3F 2A 47 2A
  77.207952 2  18EFFA00x    Rx   d 8 65 02 00 04 00 02 01 00
  77.208208 2  1CEFFA03x    Rx   d 8 AD 03 0B 2A 08 27 3F 2A
  77.208368 1  18EFFFD3x    Rx   d 8 AD 01 00 00 00 00 00 00
  77.208496 2  0CEFFF00x    Rx   d 8 64 06 0C 82 C0 FA 9A 00
  77.208656 1  18EFFFD3x    Rx   d 8 AD 02 11 01 01 98 0A 2A
  77.208784 2  0CF00300x    Rx   d 8 FF FE 5D FF FF FF C0 FF
  77.208944 1  18EFFFD3x    Rx   d 8 AD 03 0F 00 BF 71 34 66
  77.209072 2  18E726EAx    Rx   d 8 A8 40 04 FF EB 02 00 00
  77.209232 1  18EFFFD3x    Rx   d 8 AD 04 18 01 00 00 C6 01
   77.20936 2  18EFFA00x    Rx   d 8 66 00 00 00 00 00 00 D3
   77.20952 1  18EFFFD3x    Rx   d 8 AD 05 EF 77 01 0F C7 7B
  77.209648 2  18EFFA00x    Rx   d 8 67 8F FF FF FF FF FF FF
  77.209776 1  18EFFFD3x    Rx   d 8 AD 06 DC 73 06 64 00 13
  77.209936 2  1CEFFA03x    Rx   d 8 AD 29 DA 0A A2 03 A2 03
  77.210064 1  18EFFFD3x    Rx   d 8 AD 07 40 01 01 F0 FF FF
  77.210224 2  1CEFFA03x    Rx   d 8 AD 00 8D D9 D9 AA FA FA
  77.210352 1  18EFFFD3x    Rx   d 8 AD 08 01 F0 CF 00 D2 29
   77.21048 2  1CEFFA03x    Rx   d 8 AD 01 00 00 22 00 4A 11
  77.210608 1  18EFFFD3x    Rx   d 8 AD 09 FA 2E DC 73 10 27
  77.210768 2  1CEFFA03x    Rx   d 8 AD 02 3F 2A 3F 2A 46 2A
  77.210896 1  18EFFFD3x    Rx   d 8 AD 0A 10 27 E0 2E 8F 26
  77.211024 2  1CEFFA03x    Rx   d 8 AD 03 0B 2A 09 27 3F 2A
  77.211152 1  18EFFFD3x    Rx   d 8 AD 0B 10 27 3C 2B 1E 30
  77.211312 2  1CE6EB26x    Rx   d 8 A8 23 05 00 01 00 00 00
   77.21144 1  18EFFFD3x    Rx   d 8 AD 0C 89 21 01 00 01 00
    77.2116 2  1CEFFA03x    Rx   d 8 AD 04 DC 26 10 27 01 04
  77.211728 1  18EFFFD3x    Rx   d 8 AD 0D 40 0F 00 00 01 00
  77.211856 2  0CF0045Bx    Rx   d 8 F1 FF D6 7A 44 FF F4 FF
  77.212016 1  18EFFFD3x    Rx   d 8 AD 0E 4B FF 03 00 06 02
  77.212144 2  1CEFFA03x    Rx   d 8 AD 05 29 27 10 27 10 27
  77.212272 1  18EFFFD3x    Rx   d 8 AD 0F 84 03 00 00 06 02
  77.212432 2  1CEFFA03x    Rx   d 8 AD 0B FF FF 00 72 FF FF
   77.21256 1  18FFF426x    Rx   d 8 63 FA 6B 07 53 E1 FF FF
   77.21272 2  14FFFA86x    Rx   d 8 07 07 FF FF FF FF FF FF
  77.213008 2  1CEFFA03x    Rx   d 8 AD 12 C0 A2 00 80 CE 29
  77.213296 2  1CEFFA03x    Rx   d 8 AD 13 08 23 00 00 00 00
  77.213552 2  1CEFFA03x    Rx   d 8 AD 14 B8 C8 00 4A 11 28
   77.21384 2  1CEFFA03x    Rx   d 8 AD 16 0A 3C 7C 04 05 03
  77.214128 2  1CEFFA03x    Rx   d 8 AD 1B 01 00 04 00 01 00
  77.214384 2  1CE6EB26x    Rx   d 8 05 23 05 FF 04 00 00 00
  77.214672 2  1CEFFA03x    Rx   d 8 AD 1D 15 00 00 00 02 00
   77.21496 2  18E726EBx    Rx   d 8 05 23 05 FF 04 00 00 00
  77.215248 2  1CEFFA03x    Rx   d 8 AD 1E 62 0A F7 01 F2 01
  77.215536 2  1CEFFA03x    Rx   d 8 AD 1F 21 0B 00 00 12 00
  77.215824 2  1CEFFA03x    Rx   d 8 AD 20 E9 00 32 00 00 A2
   77.21608 2  1CE6EA26x    Rx   d 8 A8 40 04 00 EB 02 00 00
  77.216368 2  1CEFFA03x    Rx   d 8 AD 21 00 FF 00 FF FF FF
  77.216656 2  1CEFFA03x    Rx   d 8 AD 29 DA 0A A2 03 A2 03
  77.216944 2  0CF00400x    Rx   d 8 F1 FF D6 A2 44 FF F4 FF
  77.217232 2  18FDB300x    Rx   d 8 FF FF 40 51 FF FF FF FF
  77.217488 2  1CEFFA03x    Rx   d 8 AD 01 00 00 22 00 49 11
  77.217776 2  1CEFFA03x    Rx   d 8 AD 02 3F 2A 3F 2A 47 2A
  77.218064 2  1CEFFA03x    Rx   d 8 AD 03 0B 2A 08 27 3F 2A
  77.218352 2  18FFFE31x    Rx   d 8 05 FC FF FF FF FF FF FF
  77.218608 2  1CEFFA03x    Rx   d 8 AD 29 DA 0A A2 03 A2 03
  77.218896 2  0CEFFF00x    Rx   d 8 64 06 12 82 C0 FA 9A 00
  77.219184 2  0CF00300x    Rx   d 8 FF FE 5E FF FF FF C0 FF
  77.219472 2  0CF00400x    Rx   d 8 F1 FF D6 7A 44 FF F4 FF
   77.21976 2  0CF02300x    Rx   d 8 B1 23 F2 FF FF 70 FF FF
  77.220016 1  0CF00426x    Rx   d 8 F1 FF D6 BC 44 FF F4 FF
  77.220304 2  08FFFBEAx    Rx   d 8 FB 02 00 EB 02 FF FF FF
   77.22056 1  08FEF126x    Rx   d 8 FF BE 07 CF FF FF FF FF
  77.220848 2  18FD7C00x    Rx   d 8 F8 80 F5 F7 03 CD 03 DF
   77.22088 1  08EFFF26x    Rx   d 8 64 48 FF FF FF FD FF FF
  77.221104 2  18EFFFD4x    Rx   d 8 EA 00 37 C8 BC B0 D7 4A
  77.221168 1  0CF00426x    Rx   d 8 F1 FF D6 7A 44 FF F4 FF
  77.221392 2  1CEFFA03x    Rx   d 8 AD 01 00 00 22 00 49 11
  77.221488 1  0CF00426x    Rx   d 8 F1 FF D6 A2 44 FF F4 FF
   77.22168 2  1CE726D4x    Rx   d 8 A8 45 04 FF 32 00 00 00
  77.221776 1  0CF00426x    Rx   d 8 F1 FF D6 7A 44 FF F4 FF
  77.221968 2  1CEFFA03x    Rx   d 8 AD 02 3F 2A 3F 2A 47 2A
  77.222064 1  18FFF426x    Rx   d 8 6E 11 72 11 F0 FF FF FF
  77.222224 2  14EFFF5Bx    Rx   d 8 64 53 FF FF 40 03 67 F1
  77.222384 1  1CFFFE26x    Rx   d 8 24 FF FF FF FF FF FF 7F
  77.222512 2  1CEFFA03x    Rx   d 8 AD 03 0B 2A 08 27 3F 2A
    77.2228 2  1CEFFA03x    Rx   d 8 AD 12 AC A2 00 80 CE 29
  77.223056 2  1CEFFA03x    Rx   d 8 AD 1B 01 00 04 00 01 00
  77.223344 2  18FECA36x    Rx   d 8 00 FF 00 00 00 00 FF FF
  77.223632 2  1CEFFA03x    Rx   d 8 AD 1D 15 00 00 00 02 00
   77.22392 2  1CEFFA03x    Rx   d 8 AD 1E 62 0A FC 01 F2 01
  77.224208 2  1CEFFA03x    Rx   d 8 AD 1F 1C 0B 00 00 12 00
  77.224496 2  1CEFFA03x    Rx   d 8 AD 20 E9 00 32 00 00 A2
  77.224592 1  10FF641Cx    Rx   d 8 E0 17 1C 01 03 00 30 A9
  77.224784 2  18EFFF06x    Rx   d 8 F8 20 F2 FF FF FF FF FF
  77.224912 1  10FF641Cx    Rx   d 8 E1 1D 3B 5A F3 B0 8A 84
  77.225072 2  14FFFA86x    Rx   d 8 07 08 FF FF FF FF FF FF
  77.225264 1  10FF641Cx    Rx   d 8 E2 CC 07 80 80 04 00 00
   77.22536 2  1CEFFA03x    Rx   d 8 AD 21 00 FF 00 FF FF FF
  77.225584 1  10FF641Cx    Rx   d 8 E3 00 E8 28 9E 03 FF FF
  77.225648 2  1CEFFA03x    Rx   d 8 AD 29 DA 0A A2 03 A2 03
  77.225904 2  0CF00400x    Rx   d 8 F1 FF D7 80 44 FF F4 FF
  77.226224 2  18FEDF00x    Rx   d 8 86 C0 44 FF FF FF FF 05
  77.226512 2  08EFFFEBx    Rx   d 8 F8 0B 5E 01 FF FF F1 07
  77.226768 2  14EFFFEBx    Rx   d 8 64 95 EB 13 F0 FF FF FF
  77.227056 2  18FFFAEBx    Rx   d 8 01 72 FF FF F3 FF FF FF
  77.227344 2  1CEFFA03x    Rx   d 8 AD 01 00 00 22 00 49 11
  77.227632 2  1CEFFA03x    Rx   d 8 AD 02 3F 2A 3F 2A 47 2A
   77.22792 2  0CFF1B31x    Rx   d 8 27 BE AE 00 00 BF 00 00
  77.227984 1  18FFFAD3x    Rx   d 8 00 31 08 FF FF FF FF FF
  77.228176 2  1CEFFA03x    Rx   d 8 AD 03 0B 2A 08 27 3F 2A
  77.228464 2  08FFFAEAx    Rx   d 8 00 32 F2 00 00 FF FF FF
  77.228752 2  1CEFFA03x    Rx   d 8 AD 29 DA 0A A2 03 A2 03
   77.22904 2  18EFFFF2x    Rx   d 8 FC 04 EF 02 64 00 FF FF
  77.229328 2  18E726EAx    Rx   d 8 A8 40 04 FF EA 02 00 00
  77.229584 2  18EFFF00x    Rx   d 8 64 23 FE FA 00 FE 20 4E
  77.229872 2  0CEFFF00x    Rx   d 8 64 06 28 82 C1 FA 9A 00
   77.23016 2  0CF00300x    Rx   d 8 FF FE 5E FF FF FF C1 FF
  77.230448 2  0CF00400x    Rx   d 8 F1 FF D7 72 44 FF F4 FF
  77.230736 2  18FEF200x    Rx   d 8 96 05 FF FF FF FF FF FF
  77.231024 2  1CEFFA03x    Rx   d 8 AD 00 8D D9 D9 AA FA FA
   77.23128 2  18EFFFD4x    Rx   d 8 EA 02 04 00 A8 04 81 04
    77.2316 2  18EFFFD4x    Rx   d 8 EA 03 00 00 00 00 F0 FF
  77.231856 2  1CE6D426x    Rx   d 8 A8 45 04 00 32 00 00 00
  77.232144 2  1CEFFA03x    Rx   d 8 AD 01 00 00 22 00 48 11
    77.2324 1  18EFFF26x    Rx   d 8 64 53 FF FF 40 03 67 F1
  77.232432 2  0CF0045Bx    Rx   d 8 F1 FF D7 72 44 FF F4 FF
   77.23272 2  18FFFA26x    Rx   d 8 00 31 08 FF FF FF FF FF
  77.232976 1  0CF00426x    Rx   d 8 F1 FF D7 80 44 FF F4 FF
  77.233232 2  1CEFFA03x    Rx   d 8 AD 02 3F 2A 3F 2A 49 2A
  77.233264 1  0CF00426x    Rx   d 8 F1 FF D7 72 44 FF F4 FF
   77.23352 2  1CE6EA26x    Rx   d 8 A8 40 04 00 EA 02 00 00
  77.233552 1  0CFFFECCx    Rx   d 8 8B FF FF FF FF FF FF FF
  77.233808 2  1CEFFA03x    Rx   d 8 AD 03 0A 2A 06 27 3F 2A
   77.23384 1  0CEF00CCx    Rx   d 8 6E FF FF FF FF FF FF FF
  77.234064 2  1CEFFA03x    Rx   d 8 AD 04 DB 26 10 27 01 04
  77.234128 1  0CFFFED1x    Rx   d 8 8B FF FF FF FF FF FF FF
  77.234352 2  1CEFFA03x    Rx   d 8 AD 05 29 27 10 27 10 27
  77.234416 1  0CEF00D1x    Rx   d 8 6E FF FF FF FF FF FF FF
   77.23464 2  1CEFFA03x    Rx   d 8 AD 07 03 16 51 8D 7D 64
  77.234704 1  18EFFF26x    Rx   d 8 F8 0B 5E 01 FF FF F1 07
  77.234896 2  1CEFFA03x    Rx   d 8 AD 0A FF FF A1 A2 00 C4
  77.235184 2  1CEFFA03x    Rx   d 8 AD 0B FF FF 00 72 FF FF
  77.235472 2  1CEFFA03x    Rx   d 8 AD 12 A4 A2 00 80 CD 29
   77.23576 2  1CEFFA03x    Rx   d 8 AD 13 08 23 00 00 00 00
  77.236016 2  1CEFFA03x    Rx   d 8 AD 14 B8 C8 00 48 11 28
  77.236304 2  1CEFFA03x    Rx   d 8 AD 16 0A 3C 7F 04 05 03
  77.236592 2  1CEFFA03x    Rx   d 8 AD 1B 01 00 04 00 01 00
   77.23688 2  1CEFFA03x    Rx   d 8 AD 1D 15 00 00 00 02 00
  77.237136 2  1CEFFA03x    Rx   d 8 AD 1E 71 0A FC 01 F2 01
  77.237424 2  1CEFFA03x    Rx   d 8 AD 1F 26 0B 06 00 12 00
  77.237712 2  1CEFFA03x    Rx   d 8 AD 20 E9 00 32 00 00 A2
     77.238 2  1CEFFA03x    Rx   d 8 AD 21 00 FF 00 FF FF FF
  77.238288 2  0CFFF331x    Rx   d 8 31 C6 2B FF FF FF FF F9
  77.238576 2  18FFFF31x    Rx   d 8 EC FF FF FF FF FD FF FF
  77.238832 2  1CEFFA03x    Rx   d 8 AD 29 DA 0A A2 03 A2 03
   77.23912 2  0CF00400x    Rx   d 8 F1 FF D8 98 44 FF F4 FF
  77.239408 2  18E726EAx    Rx   d 8 A8 40 04 FF E9 02 00 00
  77.240272 2  1CEFFA03x    Rx   d 8 AD 01 00 00 22 00 48 11
   77.24056 2  1CEFFA03x    Rx   d 8 AD 02 3F 2A 3F 2A 48 2A
  77.240848 2  1CEFFA03x    Rx   d 8 AD 03 0A 2A 07 27 3F 2A
  77.241104 2  1CEFFA03x    Rx   d 8 AD 29 DA 0A A2 03 A2 03
  77.241552 2  1CFFF831x    Rx   d 8 85 08 4D FF FF FF FF FC
  77.242352 2  10FF145Bx    Rx   d 8 FF FF FF FF FF FF FF F3
   77.24264 2  0CFF18EBx    Rx   d 8 80 02 00 05 40 07 03 FF
  77.242928 2  18E726EBx    Rx   d 8 A8 23 05 FF 01 00 00 00
  77.245392 2  18FFFA31x    Rx   d 8 00 2F 11 FF FF FF FF FF
  77.246608 2  18EFFFEBx    Rx   d 8 64 92 00 00 00 00 07 00
  77.246896 2  14FFFAEBx    Rx   d 8 00 2A F0 00 FF FF FF FF
  77.247184 2  18EFFFEBx    Rx   d 8 64 96 FF 02 02 FF FF FF
  77.247472 2  1CE6EA26x    Rx   d 8 A8 40 04 00 E9 02 00 00
  77.248048 2  0CFE4831x    Rx   d 8 FF FF FF FF FF FF FF F7
   77.24856 2  0CEFFF00x    Rx   d 8 64 06 2F 82 C1 FA 9A 00
  77.248848 2  0CF00300x    Rx   d 8 FF FE 5C FF FF FF C1 FF
  77.249136 2  0CF00400x    Rx   d 8 F1 FF D8 B8 44 FF F4 FF
  77.249392 2  18E726EAx    Rx   d 8 A8 40 04 FF E8 02 00 00
  77.249712 2  18EFFF00x    Rx   d 8 F8 21 04 00 00 00 1E 00
      77.25 2  1CEFFA03x    Rx   d 8 AD 01 00 00 22 00 48 10
  77.250288 2  1CEFFA03x    Rx   d 8 AD 02 3F 2A 3F 2A 4A 2A
  77.250544 2  1CEFFA03x    Rx   d 8 AD 03 09 2A 05 27 3F 2A
  77.250832 2  1CEFFA03x    Rx   d 8 AD 12 D4 A2 00 80 CC 29
   77.25112 2  1CEFFA03x    Rx   d 8 AD 1B 01 00 04 00 01 00
  77.251376 2  1CEFFA03x    Rx   d 8 AD 1D 15 00 00 00 02 00
  77.251664 2  1CEFFA03x    Rx   d 8 AD 1E 59 0A F7 01 F2 01
  77.251952 2  1CEFFA03x    Rx   d 8 AD 1F 1C 0B 00 00 12 00
   77.25224 2  1CEFFA03x    Rx   d 8 AD 20 E9 00 32 00 00 A2
  77.252496 2  0CF0045Bx    Rx   d 8 F1 FF D8 B8 44 FF F4 FF
  77.252816 2  18EFFF06x    Rx   d 8 F8 20 F2 FF FF FF FF FF
  77.253072 2  1CE6EB26x    Rx   d 8 A8 23 05 00 01 00 00 00
  77.253232 1  0CF00426x    Rx   d 8 F1 FF D7 72 44 FF F4 FF
   77.25336 2  1CEFFA03x    Rx   d 8 AD 21 00 FF 00 FF FF FF
   77.25352 1  0CF00426x    Rx   d 8 F1 FF D8 98 44 FF F4 FF
  77.253648 2  1CEFFA03x    Rx   d 8 AD 29 DA 0A A2 03 A2 03
   77.25384 1  18FFFF26x    Rx   d 8 EC FF FF FF FF FD FF FF
  77.254576 2  1CE6EB26x    Rx   d 8 05 23 05 FF 04 00 00 00
   77.25496 2  18E726EBx    Rx   d 8 05 23 05 FF 04 00 00 00
  77.256592 2  14EFFFEBx    Rx   d 8 64 4A 46 04 8F 89 FE FF
   77.25688 1  0CF00426x    Rx   d 8 F1 FF D8 B8 44 FF F4 FF
  77.257136 2  1CE6EA26x    Rx   d 8 A8 40 04 00 E8 02 00 00
  77.257456 2  18EFFA26x    Rx   d 8 AD 0A 00 00 01 01 00 FF
  77.257712 1  0CF00426x    Rx   d 8 F1 FF D8 B8 44 FF F4 FF
     77.258 2  18EFFA26x    Rx   d 8 AD 0C 00 00 FE 09 89 00
  77.258576 2  18FFF831x    Rx   d 8 45 FF FF FF F0 FF FF FF
  77.258864 2  08FFF831x    Rx   d 8 16 FF FF FF F0 FF FF FF
  77.259152 2  0CF00400x    Rx   d 8 F1 FF D6 C0 44 FF F4 FF
   77.25944 2  0CF02300x    Rx   d 8 A9 23 F2 FF FF 71 FF FF
  77.259728 2  08FEF103x    Rx   d 8 FF C0 07 CF FF FF FF FF
  77.260016 2  18E726EAx    Rx   d 8 A8 40 04 FF E7 02 00 00
  77.260304 2  18FFFA31x    Rx   d 8 01 72 FC FF FC FF FF FF
  77.260592 2  18FFFA31x    Rx   d 8 01 73 FC FF FC FF FF FF
   77.26088 2  18FFF831x    Rx   d 8 0A 00 FF FF FF FF FF FF
  77.261168 2  08FFFBEAx    Rx   d 8 FB 02 00 E6 02 FF FF FF
  77.261456 2  18FFFB26x    Rx   d 8 F9 01 02 B3 07 FF FF FF
  77.261744 2  1CEFFA03x    Rx   d 8 AD 01 00 00 22 00 48 11
     77.262 2  18EFFFD4x    Rx   d 8 EA 00 37 C8 BC B0 D7 4A
  77.262288 2  18EFFF31x    Rx   d 8 F4 19 FF FF FF FF FF FF
  77.262576 2  18FECAEAx    Rx   d 8 00 FF 00 00 00 00 FF FF
  77.262864 2  1CEFFA03x    Rx   d 8 AD 02 3F 2A 3F 2A 4A 2A
  77.263152 2  18FFFB5Bx    Rx   d 8 00 05 E4 FF FF FF FF FF
   77.26344 2  08FFFBEAx    Rx   d 8 FB 02 12 00 00 FF FF FF
  77.263728 2  18FFFA26x    Rx   d 8 07 00 0F 06 85 09 B3 07
  77.264016 2  1CEFFA03x    Rx   d 8 AD 03 09 2A 05 27 3F 2A
  77.264272 2  1CEFFA03x    Rx   d 8 AD 29 DA 0A A2 03 A2 03
   77.26456 2  18FFF886x    Rx   d 8 9B 00 7D 3A 64 80 1A 00
  77.265328 2  18FFF426x    Rx   d 8 02 C1 00 EA 00 FF FF FF
  77.265616 2  18FFF486x    Rx   d 8 65 01 0E 1D FF 89 F0 FF
  77.265904 2  18FFF426x    Rx   d 8 03 6E 01 81 01 FF FF FF
  77.267632 1  0CFFF826x    Rx   d 8 9B 00 7D 3A 64 80 1A 00
    77.2684 1  0CF00426x    Rx   d 8 F1 FF D6 C0 44 FF F4 FF
   77.26872 1  08FEF126x    Rx   d 8 FF C0 07 CF FF FF FF FF
  77.268784 2  18EFFF00x    Rx   d 8 64 10 0F 0F 7B 33 14 3D
  77.269072 2  14FFFEEAx    Rx   d 8 47 8E 01 63 00 6D 7D FF
   77.26936 2  0CEFFF00x    Rx   d 8 64 06 10 82 C1 FA 9A 00
  77.269648 2  0CF00300x    Rx   d 8 FF FE 5B FF FF FF C1 FF
  77.269904 2  14FFFB5Bx    Rx   d 8 01 15 BC B1 FF FF FF FF
  77.270192 2  0CF00400x    Rx   d 8 F1 FF D6 F4 44 FF F4 FF
  77.270448 2  14FFFFEAx    Rx   d 8 16 FF 62 61 00 00 C5 38
  77.270736 2  18FFF426x    Rx   d 8 29 FF 11 FF FF FF FF FF
  77.271024 2  1CEFFA03x    Rx   d 8 AD 00 8D D9 D9 AA FA FA
  77.271312 2  1CE6EA26x    Rx   d 8 A8 40 04 00 E7 02 00 00
    77.2716 2  1CEFFA03x    Rx   d 8 AD 01 00 00 22 00 47 11
  77.271856 2  18E726EAx    Rx   d 8 A8 40 04 FF E8 02 00 00
  77.272144 2  1CEFFA03x    Rx   d 8 AD 02 3F 2A 3F 2A 49 2A
  77.272432 2  18EFFF31x    Rx   d 8 F1 07 CC CC 00 00 CC CC
  77.272688 2  18EFFF31x    Rx   d 8 F0 02 CC 00 30 F0 FF FF
  77.272976 2  1CEFFA03x    Rx   d 8 AD 03 0A 2A 06 27 3F 2A
  77.273264 2  0CF0045Bx    Rx   d 8 F1 FF D6 F4 44 FF F4 FF
   77.27352 2  1CEFFA03x    Rx   d 8 AD 04 DB 26 10 27 01 04
  77.273808 2  1CEFFA03x    Rx   d 8 AD 05 29 27 10 27 10 27
  77.274064 1  0CFFFECCx    Rx   d 8 8B FF FF FF FF FF FF FF
  77.274096 2  1CEFFA03x    Rx   d 8 AD 06 7D 7D 00 7D D9 28
  77.274352 2  1CEFFA03x    Rx   d 8 AD 07 04 18 51 8D 7D 64
  77.274384 1  0CEF00CCx    Rx   d 8 6E FF FF FF FF FF FF FF
   77.27464 2  1CEFFA03x    Rx   d 8 AD 08 8D 04 FF FF FF FF
  77.274672 1  0CFFF426x    Rx   d 8 65 01 0E 1D FF 89 F0 FF
  77.274928 2  1CEFFA03x    Rx   d 8 AD 09 64 8E 00 8C 67 94
  77.275184 1  0CFFFED1x    Rx   d 8 8B FF FF FF FF FF FF FF
   77.27544 2  1CEFFA03x    Rx   d 8 AD 0A FF FF A1 A2 00 C4
  77.275472 1  0CEF00D1x    Rx   d 8 6E FF FF FF FF FF FF FF
   77.27576 2  1CEFFA03x    Rx   d 8 AD 0B FF FF 00 73 FF FF
  77.276016 1  0CF00426x    Rx   d 8 F1 FF D6 F4 44 FF F4 FF
  77.276272 2  1CEFFA03x    Rx   d 8 AD 0C 6B 20 FF DD A3 10
  77.276528 2  1CEFFA03x    Rx   d 8 AD 0D E9 14 34 12 FF FF
  77.276816 2  1CEFFA03x    Rx   d 8 AD 0F 00 FF 15 00 00 00
  77.277104 2  1CEFFA03x    Rx   d 8 AD 12 DC A2 00 80 CD 29
  77.277392 2  1CEFFA03x    Rx   d 8 AD 13 08 23 00 00 00 00
  77.277648 2  1CEFFA03x    Rx   d 8 AD 14 B8 C8 00 47 11 28
  77.277936 2  1CEFFA03x    Rx   d 8 AD 15 40 00 1D 06 FF FF
  77.278224 2  1CEFFA03x    Rx   d 8 AD 16 0A 3C 7C 04 08 03
  77.278512 2  1CEFFA03x    Rx   d 8 AD 1A 56 02 00 00 00 00
    77.2788 2  1CEFFA03x    Rx   d 8 AD 1B 01 00 04 00 01 00
  77.279056 2  1CE6EA26x    Rx   d 8 A8 40 04 00 E8 02 00 00
  77.279344 2  0CFF1B31x    Rx   d 8 27 BE AE 00 10 05 00 00
  77.279632 2  0CFFF331x    Rx   d 8 31 C3 2B FF FF FF FF F9
   77.27992 2  1CEFFA03x    Rx   d 8 AD 1C 00 00 00 00 01 00
  77.280208 2  1CEFFA03x    Rx   d 8 AD 1D 15 00 00 00 02 00
  77.280496 2  1CEFFA03x    Rx   d 8 AD 1E 62 0A FC 01 F2 01
  77.280752 2  1CEFFA03x    Rx   d 8 AD 1F 26 0B 00 00 12 00
   77.28104 2  1CEFFA03x    Rx   d 8 AD 20 E9 00 32 00 00 A2
  77.281328 2  1CEFFA03x    Rx   d 8 AD 21 00 FF 00 FF FF FF
  77.281616 2  1CEFFA03x    Rx   d 8 AD 29 DA 0A A2 03 A2 03
  77.281872 2  0CF00400x    Rx   d 8 F1 FF D4 E4 44 FF F4 FF
  77.282192 2  18E726EAx    Rx   d 8 A8 40 04 FF E9 02 00 00
  77.282448 2  18EFFF00x    Rx   d 8 64 55 D4 63 01 A7 2F FF
  77.282736 2  1CEFFA03x    Rx   d 8 AD 01 00 00 22 00 47 11
  77.282992 2  1CEFFA03x    Rx   d 8 AD 02 3F 2A 3F 2A 48 2A
   77.28328 2  1CEFFA03x    Rx   d 8 AD 03 0A 2A 07 27 3F 2A
  77.283536 2  1CEFFA5Bx    Rx   d 8 AD 04 F0 35 16 14 82 13
  77.283824 2  08EFFF5Bx    Rx   d 8 64 57 2F FF FF 00 00 FF
  77.284112 1  0CF00426x    Rx   d 8 F1 FF D6 F4 44 FF F4 FF
  77.284144 2  0CFF18EBx    Rx   d 8 80 11 00 06 40 07 04 FF
    77.2844 2  18E726EBx    Rx   d 8 A8 23 05 FF 01 00 00 00
  77.284688 2  1CEFFA03x    Rx   d 8 AD 29 DA 0A A2 03 A2 03
  77.284944 2  1CEFFA5Bx    Rx   d 8 AD 05 4F 35 71 35 9B 35
  77.285232 2  1CFFFABFx    Rx   d 8 00 2D 00 06 05 06 06 06
   77.28552 2  1CEFFA5Bx    Rx   d 8 AD 06 8D 35 64 35 00 00
  77.285808 2  0CACFF13x    Rx   d 8 8B 7D 14 1F C0 FF FF FF
  77.286064 2  1CEFFA5Bx    Rx   d 8 AD 07 D4 35 48 35 00 00
  77.286352 2  18FFF413x    Rx   d 8 63 FA 6B 07 53 E1 FF FF
   77.28664 2  18FFFA26x    Rx   d 8 00 24 00 FF FF FF FF FF
   77.28792 2  1CE6EA26x    Rx   d 8 A8 40 04 00 E9 02 00 00
  77.288208 1  0CACFF26x    Rx   d 8 8B 7D 14 1F C0 FF FF FF
  77.288528 1  0CF00426x    Rx   d 8 F1 FF D4 E4 44 FF F4 FF
   77.28872 2  1CE6EB26x    Rx   d 8 A8 23 05 00 01 00 00 00
  77.288816 1  18FFF426x    Rx   d 8 63 FA 6B 07 53 E1 FF FF
   77.28984 2  0CEFFF00x    Rx   d 8 64 06 F2 81 C0 FA 9A 00
  77.290128 2  0CF00300x    Rx   d 8 FF FE 5C FF FF FF C0 FF
  77.290416 2  0CF00400x    Rx   d 8 F1 FF D4 E8 44 FF F4 FF
  77.290672 2  18E726EAx    Rx   d 8 A8 40 04 FF EA 02 00 00
   77.29096 2  1CE6EB26x    Rx   d 8 05 23 05 FF 04 00 00 00
  77.291248 2  1CEFFA03x    Rx   d 8 AD 01 00 00 22 00 48 11
  77.291536 2  18E726EBx    Rx   d 8 05 23 05 FF 04 00 00 00
  77.291824 2  1CEFFA03x    Rx   d 8 AD 02 3F 2A 3F 2A 44 2A
   77.29208 2  1CEFFA03x    Rx   d 8 AD 03 0C 2A 0B 27 3F 2A
  77.292368 2  1CEFFA03x    Rx   d 8 AD 12 9C A2 00 80 CF 29
  77.292624 2  1CEFFA03x    Rx   d 8 AD 1B 01 00 04 00 01 00
  77.292944 2  1CEFFA03x    Rx   d 8 AD 1D 15 00 00 00 02 00
   77.29352 2  1CEFFA03x    Rx   d 8 AD 1E 67 0A FC 01 F2 01
  77.293808 2  0CF0045Bx    Rx   d 8 F1 FF D4 E8 44 FF F4 FF
  77.294096 2  18EFFF06x    Rx   d 8 F8 20 F2 FF FF FF FF FF
  77.294384 2  0CFFEC5Bx    Rx   d 8 FF FF FF FF FF FF FF FF
  77.294576 1  18EF00CCx    Rx   d 8 F0 0D FF FF FF FF FF FF
  77.294672 2  1CEFFA03x    Rx   d 8 AD 1F 1C 0B 00 00 12 00
  77.294896 1  18FFFECCx    Rx   d 8 AA FF FF FF FF FF FF FF
   77.29496 2  08FFFA5Bx    Rx   d 8 00 22 05 F3 BC 0A FF FF
  77.295248 2  18FFF413x    Rx   d 8 5F 71 64 C4 BA 62 FF FF
  77.295536 2  18FFF486x    Rx   d 8 6C FF FF FF FF FF FF FF
  77.295792 2  1CEFFA03x    Rx   d 8 AD 20 E9 00 49 00 00 A2
   77.29608 2  1CEFFA03x    Rx   d 8 AD 21 00 FF 00 FF FF FF
  77.296368 2  1CEFFA03x    Rx   d 8 AD 29 DD 0A A1 03 A1 03
  77.296688 2  18FFFE31x    Rx   d 8 FD FB FB FB FB FF FF FF
  77.298416 2  18EFFA26x    Rx   d 8 AD 7C 00 00 59 00 15 00
   77.29864 1  0CF00426x    Rx   d 8 F1 FF D4 E8 44 FF F4 FF
  77.298736 2  18EFFA26x    Rx   d 8 AD 7D BE 00 1C 00 00 00
  77.298928 1  0CF00426x    Rx   d 8 F1 FF D4 E8 44 FF F4 FF
  77.299344 2  18D0FF31x    Rx   d 8 FA FA FF FF FF FF FF FF
  77.299632 2  1CE6EA26x    Rx   d 8 A8 40 04 00 EA 02 00 00
  77.300112 2  0CF00400x    Rx   d 8 F1 FF D4 BE 44 FF F4 FF
  77.300976 2  1CEFFA03x    Rx   d 8 AD 01 00 00 22 00 47 10
  77.301264 2  1CEFFA03x    Rx   d 8 AD 02 3F 2A 3F 2A 43 2A
   77.30152 2  1CEFFA03x    Rx   d 8 AD 03 0C 2A 0C 27 3F 2A
  77.301808 2  08FFFBEAx    Rx   d 8 FB 02 00 EA 02 FF FF FF
  77.302096 2  1CEFFA03x    Rx   d 8 AD 29 DA 0A A2 03 A2 03
  77.302608 2  0CFE48D4x    Rx   d 8 FF FF FF FF FF FF FF FF
  77.302928 2  18EFFA26x    Rx   d 8 AD 1D 38 00 0F 00 FF FF
  77.303536 2  08FEF15Bx    Rx   d 8 FF C0 07 CF FF FF FF FF
  77.303824 2  18EFFFF2x    Rx   d 8 FC 04 B1 03 64 00 FF FF
  77.304112 2  08FFFA5Bx    Rx   d 8 00 21 BA 2E 90 2E FF FE
    77.3044 2  14EFFF5Bx    Rx   d 8 64 53 FF FF 40 03 65 F1
  77.307888 2  08EFFFEBx    Rx   d 8 64 48 FF FF FF FD FF FF
  77.307952 1  0CF00426x    Rx   d 8 F1 FF D4 BE 44 FF F4 FF
  77.309328 2  18FFFF31x    Rx   d 8 87 FF 00 FF FF FF FF FF
   77.30984 2  14FFFBEAx    Rx   d 8 FB 04 84 70 FB FF FF FF
  77.310096 2  0CEFFF00x    Rx   d 8 64 06 F6 81 BF FA 9A 00
