date Mon Jul 29 12:30:18.000 PM 2024

// CanSniff Bus Monitor Program v6.12    Copyright (c) 1995-2020 Deere & Co. |
//
// PreTrigger DateStamp: Mon Jul 29 12:30:18.000 PM 2024
// CanSniff created log file in something close to CANalyzer format
// >cansniff -Fc=h2389_shutdown_log_001_07292024.asc 

base hex  timestamps absolute
no internal events logged
Begin TriggerBlock Mon Jul 29 12:30:18.000 PM 2024
   0.000000 Start of measurement
   0.001155 2  0CEFFF00x    Rx   d 8 64 06 00 7D FF FF 00 00 
   0.001449 2  0CF00300x    Rx   d 8 FF FE 00 FF FF FF FF FF 
   0.001449 1  0CEFFF00x    Rx   d 8 64 06 00 7D FF FF 00 00 
   0.001736 2  0CF00400x    Rx   d 8 FE FF 7D 00 00 FF F0 FF 
   0.001753 1  0CF00300x    Rx   d 8 FF FE 00 FF FF FF FF FF 
   0.002023 2  18FEEE5Bx    Rx   d 8 41 40 FF FF FF FF FF FF 
   0.002039 1  18FEEE5Bx    Rx   d 8 41 40 FF FF FF FF FF FF 
   0.002310 2  1CEFFA03x    Rx   d 8 AD 1C 00 00 00 00 00 00 
   0.002326 1  0CF00400x    Rx   d 8 FE FF 7D 00 00 FF F0 FF 
   0.002605 2  1CEFFA03x    Rx   d 8 AD 1D 03 00 00 00 00 00 
   0.002613 1  18EFFF31x    Rx   d 8 F1 07 CC CC 00 00 00 00 
   0.002883 2  1CEFFA03x    Rx   d 8 AD 1E 00 10 00 00 00 00 
   0.002891 1  18EFFF31x    Rx   d 8 F0 02 CC 00 30 F0 FF FF 
   0.003178 2  1CEFFA03x    Rx   d 8 AD 1F 10 00 00 00 00 00 
   0.003178 1  1CEFFA03x    Rx   d 8 AD 1C 00 00 00 00 00 00 
   0.003457 1  18EFFF31x    Rx   d 8 F0 08 FF 88 88 FF FF 88 
   0.003465 2  1CEFFA03x    Rx   d 8 AD 20 00 00 00 00 FF FF 
   0.003743 2  18EFFF31x    Rx   d 8 F0 08 FF 88 88 FF FF 88 
   0.003743 1  1CEFFA03x    Rx   d 8 AD 1D 03 00 00 00 00 00 
   0.004030 2  1CEFFA03x    Rx   d 8 AD 21 FF 00 00 00 00 00 
   0.004030 1  1CEFFA03x    Rx   d 8 AD 1E 00 10 00 00 00 00 
   0.004317 2  1CEFFA03x    Rx   d 8 AD 22 00 00 00 00 00 00 
   0.004325 1  1CEFFA03x    Rx   d 8 AD 1F 10 00 00 00 00 00 
   0.004620 1  1CEFFA03x    Rx   d 8 AD 20 00 00 00 00 FF FF 
   0.004907 1  1CEFFA03x    Rx   d 8 AD 21 FF 00 00 00 00 00 
   0.005193 1  08EFFFEBx    Rx   d 8 64 48 FF FF FF FC FF FF 
   0.005480 1  1CEFFA03x    Rx   d 8 AD 22 00 00 00 00 00 00 
   0.007159 1  18EFFF31x    Rx   d 8 64 65 FF FF 00 FF FF FF 
   0.010338 1  1CEFFAEAx    Rx   d 8 AD 01 00 40 80 00 00 00 
   0.010616 1  1CEFFAEAx    Rx   d 8 AD 02 FF FF 80 00 C8 64 
   0.010887 1  1CEFFAEAx    Rx   d 8 AD 03 00 21 34 36 46 66 
   0.010919 2  0CF00400x    Rx   d 8 FE FF 7D 00 00 FF F0 FF 
   0.011165 1  1CEFFAEAx    Rx   d 8 AD 04 79 A6 00 1C 74 86 
   0.011452 1  0CF00400x    Rx   d 8 FE FF 7D 00 00 FF F0 FF 
   0.011730 1  1CEFFAEAx    Rx   d 8 AD 05 39 59 8C A8 04 00 
   0.011739 2  08EFFF03x    Rx   d 8 64 61 C1 FF DF 0F FF FF 
   0.012017 1  0CF0045Bx    Rx   d 8 FE FF 7D 00 00 FF F0 FF 
   0.012017 2  0CF0045Bx    Rx   d 8 FE FF 7D 00 00 FF F0 FF 
   0.012304 1  18EFFF5Bx    Rx   d 8 64 A3 FF FF FF FF FF FF 
   0.012574 1  1CEFFAEAx    Rx   d 8 AD 06 80 30 4F 4B 00 00 
   0.012869 1  1CEFFAEAx    Rx   d 8 AD 07 00 00 00 00 00 00 
   0.013156 1  18FFFAEAx    Rx   d 8 00 1C 0C C0 0F FF FF FF 
   0.013451 1  18FFFBEAx    Rx   d 8 FB 0A FF FF FF FF FF FF 
   0.014000 2  04EF0006x    Rx   d 8 64 15 15 F3 00 00 50 14 
   0.014598 1  08FFFB26x    Rx   d 8 F9 01 00 00 FF FF FF FF 
   0.014901 2  08FFFB26x    Rx   d 8 F9 01 00 00 FF FF FF FF 
   0.019570 1  0CFF18EBx    Rx   d 8 C0 03 00 04 40 07 06 FF 
   0.020643 1  18EFFF26x    Rx   d 8 09 FF FF FF FF 00 00 FF 
   0.020873 2  0CF00300x    Rx   d 8 FF FE 00 FF FF FF FF FF 
   0.021159 2  0CEFFF00x    Rx   d 8 64 06 00 7D FF FF 00 00 
   0.021176 1  0CF00300x    Rx   d 8 FF FE 00 FF FF FF FF FF 
   0.021454 2  0CF00400x    Rx   d 8 FE FF 7D 00 00 FF F0 FF 
   0.021463 1  0CEFFF00x    Rx   d 8 64 06 00 7D FF FF 00 00 
   0.021741 2  1CFFFA00x    Rx   d 8 00 50 27 0E BF 5E FF FF 
   0.021757 1  0CF00400x    Rx   d 8 FE FF 7D 00 00 FF F0 FF 
   0.022028 2  08FFFA03x    Rx   d 8 00 23 DF FF FF FF FF FF 
   0.022044 1  08EFFF5Bx    Rx   d 8 64 57 2F FF FF 00 00 FF 
   0.022315 2  14FFFA5Bx    Rx   d 8 08 2D A0 28 A0 28 FC FF 
   0.022323 1  14FFFA5Bx    Rx   d 8 08 2D A0 28 A0 28 FC FF 
   0.022593 2  18EFFFF2x    Rx   d 8 64 58 FC F4 80 FF FF FE 
   0.022618 1  18FFFA5Bx    Rx   d 8 01 72 FF FF FF FC FF FF 
   0.022888 2  14FFFA5Bx    Rx   d 8 00 20 FD FE FF FF FF FF 
   0.022904 1  14FFFA5Bx    Rx   d 8 00 20 FD FE FF FF FF FF 
   0.023199 1  18FFFA5Bx    Rx   d 8 01 73 FF FF FF FC FF FF 
   0.023486 1  10FF145Bx    Rx   d 8 FF FF FF FF FF FF FF FF 
   0.023781 1  1CFFFA5Bx    Rx   d 8 00 86 FF FF FF FF FF FF 
   0.024313 1  08FFFBEAx    Rx   d 8 FB 02 12 00 FE FF FF FF 
   0.024772 1  1CFFFAEAx    Rx   d 8 00 2D 08 FF FF 00 00 00 
   0.025059 1  14EFFFEBx    Rx   d 8 64 49 00 00 00 00 FF FF 
   0.025067 2  1CFFFAEAx    Rx   d 8 00 2D 08 FF FF 00 00 00 
   0.026689 1  18FFFA28x    Rx   d 8 00 4F FC FF FF FF FF FF 
   0.027148 1  0CFFF331x    Rx   d 8 31 FF FE FF FF FF FF F8 
   0.027435 1  0CFF1B31x    Rx   d 8 27 24 38 00 B0 74 00 00 
   0.027443 2  0CFFF331x    Rx   d 8 31 FF FE FF FF FF FF F8 
   0.027721 1  08FFFB31x    Rx   d 8 00 C2 FF FF FF FF FF FF 
   0.027729 2  0CFF1B31x    Rx   d 8 27 24 38 00 B0 74 00 00 
   0.028467 1  18FEF326x    Rx   d 8 C3 A7 EA 95 A5 2E 49 47 
   0.028770 1  0CFEE826x    Rx   d 8 73 28 00 00 77 65 D8 53 
   0.029048 2  0CFEE826x    Rx   d 8 73 28 00 00 77 65 D8 53 
   0.029089 1  0CFFFF26x    Rx   d 8 51 03 02 1A 0A 06 08 04 
   0.029392 1  08FFFF26x    Rx   d 8 E1 DF 95 64 FB 63 FF 28 
   0.029671 2  08FFFF26x    Rx   d 8 E1 DF 95 64 FB 63 FF 28 
   0.029696 1  18FEE826x    Rx   d 8 73 28 00 00 77 65 D8 53 
   0.029974 2  18FEE826x    Rx   d 8 73 28 00 00 77 65 D8 53 
   0.029990 1  18FFFF26x    Rx   d 8 53 0D F3 5A 10 55 41 54 
   0.030924 2  0CF00400x    Rx   d 8 FE FF 7D 00 00 FF F0 FF 
   0.031219 1  0CF00400x    Rx   d 8 FE FF 7D 00 00 FF F0 FF 
   0.031940 2  0CF0045Bx    Rx   d 8 FE FF 7D 00 00 FF F0 FF 
   0.031940 1  0CF0045Bx    Rx   d 8 FE FF 7D 00 00 FF F0 FF 
   0.032227 2  0CFFF606x    Rx   d 8 FF FF FF FF FF FF FF FF 
   0.032235 1  18EFFF06x    Rx   d 8 F8 20 F0 FF FF FF FF FF 
   0.032522 2  18EFFF06x    Rx   d 8 F8 20 F0 FF FF FF FF FF 
   0.032808 2  0CACFF13x    Rx   d 8 94 7D 14 1F C2 FF FF FF 
   0.033087 2  18FFF413x    Rx   d 8 63 43 02 00 10 E1 FF FF 
   0.033095 1  0CACFF13x    Rx   d 8 94 7D 14 1F C2 FF FF FF 
   0.033382 1  18FFF413x    Rx   d 8 63 43 02 00 10 E1 FF FF 
   0.033669 1  0CADFF26x    Rx   d 8 FF FF FC FF FF FF FF FF 
   0.033964 2  0CADFF26x    Rx   d 8 FF FF FC FF FF FF FF FF 
   0.033964 1  18FFF426x    Rx   d 8 64 2A 41 26 00 43 51 2F 
   0.034242 2  04EF0006x    Rx   d 8 64 15 16 F3 00 00 50 14 
   0.034521 2  18FFF426x    Rx   d 8 64 2A 41 26 00 43 51 2F 
   0.034807 2  1CEBFF00x    Rx   d 8 03 E8 00 4B FF FF CA 03 
   0.035102 1  1CEBFF00x    Rx   d 8 03 E8 00 4B FF FF CA 03 
   0.037347 2  18EFFA13x    Rx   d 8 AD 12 16 23 16 23 00 00 
   0.040386 1  14FFFEEAx    Rx   d 8 43 FF FF FF FE FF FF FF 
   0.040935 2  0CF00300x    Rx   d 8 FF FE 00 FF FF FF FF FF 
   0.041222 2  0CEFFF00x    Rx   d 8 64 06 00 7D FF FF 00 00 
   0.041230 1  0CF00300x    Rx   d 8 FF FE 00 FF FF FF FF FF 
   0.041508 2  0CF00400x    Rx   d 8 FE FF 7D 00 00 FF F0 FF 
   0.041525 1  0CEFFF00x    Rx   d 8 64 06 00 7D FF FF 00 00 
   0.041803 2  08FEF103x    Rx   d 8 FF 00 00 CF FF FF FF FF 
   0.041820 1  0CF00400x    Rx   d 8 FE FF 7D 00 00 FF F0 FF 
   0.042074 2  14EFFFF2x    Rx   d 8 64 69 CF FC 1A 10 9A 1A 
   0.042106 1  08FEF103x    Rx   d 8 FF 00 00 CF FF FF FF FF 
   0.042369 2  18FEF200x    Rx   d 8 00 00 FF FF FF FF FF FF 
   0.042655 2  18FFF413x    Rx   d 8 95 BF 7E FF FF FF FF FF 
   0.042672 1  18FEF200x    Rx   d 8 00 00 FF FF FF FF FF FF 
   0.042942 2  18FFF413x    Rx   d 8 5F 81 64 C1 83 63 7F FF 
   0.043229 1  18FFF413x    Rx   d 8 5F 81 64 C1 83 63 7F FF 
   0.043589 1  18FFFA31x    Rx   d 8 04 09 CC 0C FF FF FF FF 
   0.043892 1  18EFFF31x    Rx   d 8 F0 0E FF FF FF FF FF FF 
   0.044179 1  18FFFA26x    Rx   d 8 00 31 00 FD FF FF FF FF 
   0.045850 1  18FFFA26x    Rx   d 8 00 24 00 FF FF FF FF FF 
   0.047366 1  10FFFF31x    Rx   d 8 06 FF FF FF FF FF FF 3F 
   0.050905 2  0CF00400x    Rx   d 8 FE FF 7D 00 00 FF F0 FF 
   0.051200 1  0CF00400x    Rx   d 8 FE FF 7D 00 00 FF F0 FF 
   0.051740 2  08EFFF03x    Rx   d 8 64 61 C1 FF DF 0F FF FF 
   0.051929 1  0CF0045Bx    Rx   d 8 FE FF 7D 00 00 FF F0 FF 
   0.052027 2  0CF0045Bx    Rx   d 8 FE FF 7D 00 00 FF F0 FF 
   0.052224 1  14FFFA5Bx    Rx   d 8 06 00 F8 02 FF FF FF FF 
   0.053968 2  04EF0006x    Rx   d 8 64 15 17 F3 00 00 50 14 
   0.054648 1  10FFFDEBx    Rx   d 8 00 05 FF FF 00 00 0F FF 
   0.054935 1  10FFFDEBx    Rx   d 8 00 06 FF FF FF FF FF FF 
   0.055803 2  1CFFFA5Bx    Rx   d 8 00 2D 09 22 FF FF FF FF 
   0.055812 1  1CFFFA5Bx    Rx   d 8 00 2D 09 22 FF FF FF FF 
   0.059867 1  0CFF18EBx    Rx   d 8 C0 0D 00 07 40 07 07 FF 
   0.060882 2  0CF00300x    Rx   d 8 FF FE 00 FF FF FF FF FF 
   0.061169 2  0CEFFF00x    Rx   d 8 64 06 00 7D FF FF 00 00 
   0.061186 1  0CF00300x    Rx   d 8 FF FE 00 FF FF FF FF FF 
   0.061464 2  0CF00400x    Rx   d 8 FE FF 7D 00 00 FF F0 FF 
   0.061472 1  0CEFFF00x    Rx   d 8 64 06 00 7D FF FF 00 00 
   0.061751 2  18EF0600x    Rx   d 8 64 0E FF 00 FF FF FF FF 
   0.061767 1  0CF00400x    Rx   d 8 FE FF 7D 00 00 FF F0 FF 
   0.062038 2  18EFFF00x    Rx   d 8 F8 21 40 00 00 00 00 00 
   0.062054 1  14EFFF5Bx    Rx   d 8 F4 16 F0 FF FF FF FF FF 
   0.062324 2  08FFF4F2x    Rx   d 8 5E 04 FC 00 00 67 F0 FF 
   0.062341 1  1CFFFAEBx    Rx   d 8 00 2D 08 FF FF 00 00 06 
   0.062611 2  18EFFFF2x    Rx   d 8 64 58 FC F4 80 FF FF FE 
   0.062627 1  18EFFF00x    Rx   d 8 F8 21 40 00 00 00 00 00 
   0.062898 2  1CFFFAEBx    Rx   d 8 00 2D 08 FF FF 00 00 06 
   0.063586 1  18FFFE31x    Rx   d 8 FD FF FF FF FF FF FF FF 
   0.064634 1  08EFFFEBx    Rx   d 8 F8 0B 00 00 FE FF F0 00 
   0.064937 2  08EFFFEBx    Rx   d 8 F8 0B 00 00 FE FF F0 00 
   0.067141 1  0CFFF331x    Rx   d 8 31 FF FE FF FF FF FF F8 
   0.067436 2  0CFFF331x    Rx   d 8 31 FF FE FF FF FF FF F8 
   0.070410 1  14FFFFEAx    Rx   d 8 16 FF 00 00 FF FE D7 07 
   0.070696 1  08FFFAEAx    Rx   d 8 00 32 F2 00 00 FF FF FF 
   0.070959 2  0CF00400x    Rx   d 8 FE FF 7D 00 00 FF F0 FF 
   0.071245 2  0CFD9200x    Rx   d 8 F0 FF FF FF FF FF FF FF 
   0.071245 1  0CF00400x    Rx   d 8 FE FF 7D 00 00 FF F0 FF 
   0.071974 2  0CF0045Bx    Rx   d 8 FE FF 7D 00 00 FF F0 FF 
   0.071983 1  0CF0045Bx    Rx   d 8 FE FF 7D 00 00 FF F0 FF 
   0.072269 2  18EFFF06x    Rx   d 8 F8 20 F0 FF FF FF FF FF 
   0.072278 1  18EFFF06x    Rx   d 8 F8 20 F0 FF FF FF FF FF 
   0.072564 1  0CFFEC5Bx    Rx   d 8 FF FF FF FF FF F0 FF FF 
   0.072859 1  08FFFA5Bx    Rx   d 8 00 22 FE FF FE FE FE FF 
   0.074022 2  04EF0006x    Rx   d 8 64 15 18 F3 00 00 50 14 
   0.077135 1  0CFF1B31x    Rx   d 8 27 24 38 00 C0 7C 00 00 
   0.077348 2  18EFFA13x    Rx   d 8 AD 12 16 23 16 23 00 00 
   0.077627 2  0CFF1B31x    Rx   d 8 27 24 38 00 C0 7C 00 00 
   0.080846 2  0CF00300x    Rx   d 8 FF FE 00 FF FF FF FF FF 
   0.081141 2  0CEFFF00x    Rx   d 8 64 06 00 7D FF FF 00 00 
   0.081149 1  0CF00300x    Rx   d 8 FF FE 00 FF FF FF FF FF 
   0.081428 2  0CF00400x    Rx   d 8 FE FF 7D 00 00 FF F0 FF 
   0.081444 1  0CEFFF00x    Rx   d 8 64 06 00 7D FF FF 00 00 
   0.081715 2  18EFFF00x    Rx   d 8 64 10 01 01 40 03 00 7D 
   0.081731 1  0CF00400x    Rx   d 8 FE FF 7D 00 00 FF F0 FF 
   0.082001 2  08FEF15Bx    Rx   d 8 FF 00 00 CF FF FF FF FF 
   0.082018 1  08FEF15Bx    Rx   d 8 FF 00 00 CF FF FF FF FF 
   0.082305 1  18EFFF00x    Rx   d 8 64 10 01 01 40 03 00 7D 
   0.082599 1  08FFFA5Bx    Rx   d 8 00 21 FF FE FF FE FF FF 
   0.083312 2  1CEBFF00x    Rx   d 8 04 40 51 00 01 FA 91 FA 
   0.083607 1  1CEBFF00x    Rx   d 8 04 40 51 00 01 FA 91 FA 
   0.084639 1  0CEFFFEBx    Rx   d 8 F2 25 00 FF FF FF FF FF 
   0.087212 1  18FFFF31x    Rx   d 8 87 FF 00 FF FF FF FF FF 
   0.090906 2  0CF00400x    Rx   d 8 FE FF 7D 00 00 FF F0 FF 
   0.091201 1  0CF00400x    Rx   d 8 FE FF 7D 00 00 FF F0 FF 
   0.091832 2  08EFFF03x    Rx   d 8 64 61 C0 FF DF 0F FF FF 
   0.091955 1  0CF0045Bx    Rx   d 8 FE FF 7D 00 00 FF F0 FF 
   0.092119 2  0CF0045Bx    Rx   d 8 FE FF 7D 00 00 FF F0 FF 
   0.092241 1  18EFFF31x    Rx   d 8 F4 19 00 FF FF FF FF FF 
   0.092528 1  18FFFE26x    Rx   d 8 33 02 00 00 8C 00 FF FF 
   0.092561 2  18FFF413x    Rx   d 8 95 BF 7E FF FF FF FF FF 
   0.092823 1  1CFFF831x    Rx   d 8 85 00 00 FF FF FF FF FC 
   0.093978 2  04EF0006x    Rx   d 8 64 15 19 F3 00 00 50 14 
   0.094674 1  08FFFB26x    Rx   d 8 F9 01 00 00 FF FF FF FF 
   0.094978 2  08FFFB26x    Rx   d 8 F9 01 00 00 FF FF FF FF 
   0.099663 1  0CFF18EBx    Rx   d 8 C0 2C 00 01 40 07 01 FF 
   0.100442 1  14FFFEEAx    Rx   d 8 47 13 03 00 00 9B 82 FF 
   0.100728 1  18FFFFEAx    Rx   d 8 F7 FF FF FE FF FF FF FF 
   0.100884 2  0CF00300x    Rx   d 8 FF FE 00 FF FF FF FF FF 
   0.101179 2  0CEFFF00x    Rx   d 8 64 06 00 7D FF FF 00 00 
   0.101187 1  0CF00300x    Rx   d 8 FF FE 00 FF FF FF FF FF 
   0.101466 2  0CF00400x    Rx   d 8 FE FF 7D 00 00 FF F0 FF 
   0.101482 1  0CEFFF00x    Rx   d 8 64 06 00 7D FF FF 00 00 
   0.101761 2  18FEEE00x    Rx   d 8 41 40 FF FF FF FF FF FF 
   0.101769 1  0CF00400x    Rx   d 8 FE FF 7D 00 00 FF F0 FF 
   0.102039 2  18EFFFF2x    Rx   d 8 64 58 FC F4 80 FF FF FE 
   0.102064 1  10F0ED5Bx    Rx   d 8 EF FF FF FF FF FF FF FF 
   0.102326 2  1CEFFA03x    Rx   d 8 AD 1C 00 00 00 00 00 00 
   0.102342 1  18EFFF31x    Rx   d 8 F1 07 CC CC 00 00 00 00 
   0.102612 2  1CEFFA03x    Rx   d 8 AD 1D 03 00 00 00 00 00 
   0.102621 1  18EFFF31x    Rx   d 8 F0 02 CC 00 30 F0 FF FF 
   0.102899 2  1CEFFA03x    Rx   d 8 AD 1E 00 10 00 00 00 00 
   0.102916 1  18FEEE00x    Rx   d 8 41 40 FF FF FF FF FF FF 
   0.103194 2  1CEFFA03x    Rx   d 8 AD 1F 10 00 00 00 00 00 
   0.103211 1  18FFFB5Bx    Rx   d 8 00 81 F0 FF FF FF FF FF 
   0.103481 2  1CEFFA03x    Rx   d 8 AD 20 00 00 00 00 FF FF 
   0.103497 1  1CEFFA03x    Rx   d 8 AD 1C 00 00 00 00 00 00 
   0.103768 2  1CEFFA03x    Rx   d 8 AD 21 FF 00 00 00 00 00 
   0.103784 1  1CEFFA03x    Rx   d 8 AD 1D 03 00 00 00 00 00 
   0.104054 2  1CEFFA03x    Rx   d 8 AD 22 00 00 00 00 00 00 
   0.104079 1  1CEFFA03x    Rx   d 8 AD 1E 00 10 00 00 00 00 
   0.104366 1  1CEFFA03x    Rx   d 8 AD 1F 10 00 00 00 00 00 
   0.104652 1  08FFFBEAx    Rx   d 8 FB 02 12 00 FE FF FF FF 
   0.104939 1  08EFFFEBx    Rx   d 8 64 48 FF FF FF FC FF FF 
   0.105226 1  18EFFFEBx    Rx   d 8 64 44 FF FF 00 3F FF FF 
   0.105521 1  14FFFAEBx    Rx   d 8 00 2A F0 00 FF FF FF FF 
   0.105807 1  18FFFAEBx    Rx   d 8 01 72 3F FF F3 FF FF FF 
   0.106102 1  18FFFAEBx    Rx   d 8 01 73 3F FF F3 FF 0F FF 
   0.106373 1  18FFF4EBx    Rx   d 8 6E 10 61 10 10 F1 FF FF 
   0.106668 1  18FFF8EBx    Rx   d 8 EF FF 00 00 00 00 FF FF 
   0.106954 1  1CEFFA03x    Rx   d 8 AD 20 00 00 00 00 FF FF 
   0.107241 1  0CFFF331x    Rx   d 8 31 FF FE FF FF FF FF F8 
   0.107528 1  1CEFFA03x    Rx   d 8 AD 21 FF 00 00 00 00 00 
   0.107536 2  0CFFF331x    Rx   d 8 31 FF FE FF FF FF FF F8 
   0.107814 1  1CFFFAEAx    Rx   d 8 00 2D 09 00 FF FF FF FF 
   0.108101 1  18FFF426x    Rx   d 8 6B FF 00 9A 19 FF FF FF 
   0.108109 2  1CFFFAEAx    Rx   d 8 00 2D 09 00 FF FF FF FF 
   0.108388 1  1CEFFA03x    Rx   d 8 AD 22 00 00 00 00 00 00 
   0.110395 1  1CEFFAEAx    Rx   d 8 AD 01 00 40 80 00 00 00 
   0.110673 1  1CEFFAEAx    Rx   d 8 AD 02 FF FF 80 00 C8 64 
   0.110886 2  0CF00400x    Rx   d 8 FE FF 7D 00 00 FF F0 FF 
   0.110952 1  1CEFFAEAx    Rx   d 8 AD 03 00 21 34 36 46 66 
   0.111239 1  0CF00400x    Rx   d 8 FE FF 7D 00 00 FF F0 FF 
   0.111509 1  1CEFFAEAx    Rx   d 8 AD 04 79 A6 00 1C 74 86 
   0.111788 1  1CEFFAEAx    Rx   d 8 AD 05 39 59 8C A8 04 00 
   0.111935 2  0CF0045Bx    Rx   d 8 FE FF 7D 00 00 FF F0 FF 
   0.112074 1  0CF0045Bx    Rx   d 8 FE FF 7D 00 00 FF F0 FF 
   0.112230 2  0CFFF606x    Rx   d 8 FF FF FF FF FF FF FF FF 
   0.112369 1  18EFFF06x    Rx   d 8 F8 20 F0 FF FF FF FF FF 
   0.112525 2  18EFFF06x    Rx   d 8 F8 20 F0 FF FF FF FF FF 
   0.112640 1  1CEFFAEAx    Rx   d 8 AD 06 80 30 4F 4B 00 00 
   0.112934 1  1CEFFAEAx    Rx   d 8 AD 07 00 00 00 00 00 00 
   0.114049 2  04EF0006x    Rx   d 8 64 15 1A F3 00 00 50 14 
   0.114647 1  18EFFFEBx    Rx   d 8 64 96 00 02 02 0C 64 FF 
   0.116088 1  18FFFE26x    Rx   d 8 C4 FF FF FC FF FF FF FF 
   0.117137 1  0CFFFA31x    Rx   d 8 00 2F 22 FF FF FF FF FF 
   0.117366 2  18EFFA13x    Rx   d 8 AD 12 16 23 16 23 00 00 
   0.120111 1  18EFFA26x    Rx   d 8 AD 1D 00 00 00 00 FF FF 
   0.120438 1  14FFFFEAx    Rx   d 8 12 00 00 FF 00 FF FF FF 
   0.120856 2  0CF00300x    Rx   d 8 FF FE 00 FF FF FF FF FF 
   0.121151 2  0CEFFF00x    Rx   d 8 64 06 00 7D FF FF 00 00 
   0.121159 1  0CF00300x    Rx   d 8 FF FE 00 FF FF FF FF FF 
   0.121438 2  0CF00400x    Rx   d 8 FE FF 7D 00 00 FF F0 FF 
   0.121454 1  0CEFFF00x    Rx   d 8 64 06 00 7D FF FF 00 00 
   0.121724 2  1CFFFA00x    Rx   d 8 00 50 28 0E BF 5E FF FF 
   0.121741 1  0CF00400x    Rx   d 8 FE FF 7D 00 00 FF F0 FF 
   0.122019 2  08FFFA03x    Rx   d 8 00 23 DF FF FF FF FF FF 
   0.122028 1  08EFFF5Bx    Rx   d 8 64 57 2F FF FF 00 00 FF 
   0.122322 1  10FF145Bx    Rx   d 8 FF FF FF FF FF FF FF FF 
   0.124674 1  18EFFFEBx    Rx   d 8 64 A3 FF FF FF FF FF FF 
   0.127131 1  0CFF1B31x    Rx   d 8 27 24 38 00 D0 C6 00 00 
   0.127418 2  0CFF1B31x    Rx   d 8 27 24 38 00 D0 C6 00 00 
   0.127426 1  18FFFF31x    Rx   d 8 09 FF FF FF FF F3 FF FF 
   0.127721 1  08FFF831x    Rx   d 8 16 FF FF FF FF FF FF FF 
   0.128008 1  08FFFB31x    Rx   d 8 00 C2 FF FF FF FF FF FF 
   0.130891 2  0CF00400x    Rx   d 8 FE FF 7D 00 00 FF F0 FF 
   0.131178 1  0CF00400x    Rx   d 8 FE FF 7D 00 00 FF F0 FF 
   0.131178 2  18FEDF00x    Rx   d 8 7D A0 28 FF FF FF FF FF 
   0.131481 1  18FEDF00x    Rx   d 8 7D A0 28 FF FF FF FF FF 
   0.131743 2  08EFFF03x    Rx   d 8 64 61 C0 FF DF 0F FF FF 
   0.131981 1  0CF0045Bx    Rx   d 8 FE FF 7D 00 00 FF F0 FF 
   0.132030 2  0CF0045Bx    Rx   d 8 FE FF 7D 00 00 FF F0 FF 
   0.132571 2  0CACFF13x    Rx   d 8 94 7D 14 1F C2 FF FF FF 
   0.132849 2  18FFF413x    Rx   d 8 63 43 00 00 10 E1 FF FF 
   0.132857 1  0CACFF13x    Rx   d 8 94 7D 14 1F C2 FF FF FF 
   0.133144 1  18FFF413x    Rx   d 8 63 43 00 00 10 E1 FF FF 
   0.133996 2  04EF0006x    Rx   d 8 64 15 1B F3 00 00 50 14 
   0.134283 2  1CEBFF00x    Rx   d 8 05 C0 5D 00 00 FF FF FF 
   0.134594 1  1CEBFF00x    Rx   d 8 05 C0 5D 00 00 FF FF FF 
   0.134873 1  14EFFFEBx    Rx   d 8 64 95 00 00 FF FF FF FF 
   0.135880 2  1CFFFA5Bx    Rx   d 8 00 2D 0A 00 04 0C 1C FF 
   0.135888 1  1CFFFA5Bx    Rx   d 8 00 2D 0A 00 04 0C 1C FF 
   0.139493 1  18FFFE26x    Rx   d 8 B3 00 FF FF FF FF FF FF 
   0.139960 1  0CFF18EBx    Rx   d 8 C0 37 00 02 40 07 02 FF 
   0.140509 1  14FFFFEAx    Rx   d 8 18 FF FF 64 4D FF 00 FF 
   0.140886 2  0CF00300x    Rx   d 8 FF FE 00 FF FF FF FF FF 
   0.141180 2  0CEFFF00x    Rx   d 8 64 06 00 7D FF FF 00 00 
   0.141189 1  0CF00300x    Rx   d 8 FF FE 00 FF FF FF FF FF 
   0.141467 2  0CF00400x    Rx   d 8 FE FF 7D 00 00 FF F0 FF 
   0.141484 1  0CEFFF00x    Rx   d 8 64 06 00 7D FF FF 00 00 
   0.141762 2  18FEF200x    Rx   d 8 00 00 FF FF FF FF FF FF 
   0.141770 1  0CF00400x    Rx   d 8 FE FF 7D 00 00 FF F0 FF 
   0.142049 2  08FEF103x    Rx   d 8 FF 00 00 CF FF FF FF FF 
   0.142057 1  10FD925Bx    Rx   d 8 F0 FF FF FF FF FF FF FF 
   0.142336 2  10FD925Bx    Rx   d 8 F0 FF FF FF FF FF FF FF 
   0.142352 1  18FEF200x    Rx   d 8 00 00 FF FF FF FF FF FF 
   0.142614 2  18EFFFF2x    Rx   d 8 64 58 FC F4 80 FF FF FE 
   0.142639 1  08FEF103x    Rx   d 8 FF 00 00 CF FF FF FF FF 
   0.142909 2  18FFF413x    Rx   d 8 95 BF 7E FF FF FF FF FF 
   0.143032 1  1CFFFAEBx    Rx   d 8 00 2D 09 17 FF FF FF FF 
   0.143179 2  18FFF413x    Rx   d 8 5F 86 64 C1 89 63 8F FF 
   0.143417 1  18FFFA26x    Rx   d 8 00 31 00 FD FF FF FF FF 
   0.143466 2  1CFFFAEBx    Rx   d 8 00 2D 09 17 FF FF FF FF 
   0.143695 1  18FFF413x    Rx   d 8 5F 86 64 C1 89 63 8F FF 
   0.144719 1  14EFFFEBx    Rx   d 8 F8 0A CC FF FC FF FF FF 
   0.145874 1  18FFFA26x    Rx   d 8 00 24 00 FF FF FF FF FF 
   0.147144 1  0CFFF331x    Rx   d 8 31 FF FE FF FF FF FF F8 
   0.147447 2  0CFFF331x    Rx   d 8 31 FF FE FF FF FF FF F8 
   0.150913 2  0CF00400x    Rx   d 8 FE FF 7D 00 00 FF F0 FF 
   0.151207 1  0CF00400x    Rx   d 8 FE FF 7D 00 00 FF F0 FF 
   0.151928 2  0CF0045Bx    Rx   d 8 FE FF 7D 00 00 FF F0 FF 
   0.151937 1  0CF0045Bx    Rx   d 8 FE FF 7D 00 00 FF F0 FF 
   0.152223 2  18EFFF06x    Rx   d 8 F8 20 F0 FF FF FF FF FF 
   0.152231 1  18EFFF06x    Rx   d 8 F8 20 F0 FF FF FF FF FF 
   0.153206 1  18FFFB26x    Rx   d 8 00 3B 00 FE 00 FE 00 00 
   0.153985 2  04EF0006x    Rx   d 8 64 15 1C F3 00 00 50 14 
   0.157155 1  10FFFF31x    Rx   d 8 EC FF FF FF FF FD FF FF 
   0.157343 2  18EFFA13x    Rx   d 8 AD 12 16 23 16 23 00 00 
   0.157630 2  10FFFF31x    Rx   d 8 EC FF FF FF FF FD FF FF 
   0.160382 1  14EFFFEAx    Rx   d 8 F4 16 F0 FF FF FF FF FF 
   0.160882 2  0CF00300x    Rx   d 8 FF FE 00 FF FF FF FF FF 
   0.161177 2  0CEFFF00x    Rx   d 8 64 06 00 7D FF FF 00 00 
   0.161185 1  0CF00300x    Rx   d 8 FF FE 00 FF FF FF FF FF 
   0.161464 2  0CF00400x    Rx   d 8 FE FF 7D 00 00 FF F0 FF 
   0.161472 1  0CEFFF00x    Rx   d 8 64 06 00 7D FF FF 00 00 
   0.161751 2  18EF0600x    Rx   d 8 64 0E 09 00 FF FF FF FF 
   0.161767 1  0CF00400x    Rx   d 8 FE FF 7D 00 00 FF F0 FF 
   0.162037 2  08FFF4F2x    Rx   d 8 5E 04 FC 00 00 67 F0 FF 
   0.162332 2  18EFFF00x    Rx   d 8 F8 21 40 00 00 00 00 00 
   0.162627 1  18EFFF00x    Rx   d 8 F8 21 40 00 00 00 00 00 
   0.163315 1  18FFFE31x    Rx   d 8 FD FF FF FF FF FF FF FF 
   0.164691 1  08EFFFEBx    Rx   d 8 F8 0B 00 00 FE FF F0 00 
   0.164995 2  08EFFFEBx    Rx   d 8 F8 0B 00 00 FE FF F0 00 
   0.170524 1  08FFFAEAx    Rx   d 8 00 32 F2 00 00 FF FF FF 
   0.170909 2  0CF00400x    Rx   d 8 FE FF 7D 00 00 FF F0 FF 
   0.171204 1  0CF00400x    Rx   d 8 FE FF 7D 00 00 FF F0 FF 
   0.171778 2  08EFFF03x    Rx   d 8 64 61 C1 FF DF 0F FF FF 
   0.171950 1  0CF0045Bx    Rx   d 8 FE FF 7D 00 00 FF F0 FF 
   0.172056 2  0CF0045Bx    Rx   d 8 FE FF 7D 00 00 FF F0 FF 
   0.172236 1  0CFFEC5Bx    Rx   d 8 FF FF FF FF FF F0 FF FF 
   0.172531 1  08FFFA5Bx    Rx   d 8 00 22 FE FF FE FE FE FF 
   0.173957 1  08FFFB26x    Rx   d 8 F9 01 00 00 FF FF FF FF 
   0.174022 2  04EF0006x    Rx   d 8 64 15 1D F3 00 00 50 14 
   0.174317 2  08FFFB26x    Rx   d 8 F9 01 00 00 FF FF FF FF 
   0.174727 1  14EFFFEBx    Rx   d 8 F4 16 F0 FF FF FF FF FF 
   0.176717 1  10FFFE28x    Rx   d 8 A7 50 14 00 00 00 00 00 
   0.177012 1  10FFFE28x    Rx   d 8 A7 50 01 00 FF FF FF FF 
   0.177291 1  0CFF1B31x    Rx   d 8 27 24 38 00 E0 9F 00 00 
   0.177586 1  10FFFE28x    Rx   d 8 A7 50 03 00 00 00 00 00 
   0.177586 2  0CFF1B31x    Rx   d 8 27 24 38 00 E0 9F 00 00 
   0.180076 1  0CFF18EBx    Rx   d 8 C0 02 00 05 40 07 03 FF 
   0.180854 2  0CF00300x    Rx   d 8 FF FE 00 FF FF FF FF FF 
   0.181141 2  0CEFFF00x    Rx   d 8 64 06 00 7D FF FF 00 00 
   0.181149 1  0CF00300x    Rx   d 8 FF FE 00 FF FF FF FF FF 
   0.181436 2  0CF00400x    Rx   d 8 FE FF 7D 00 00 FF F0 FF 
   0.181444 1  0CEFFF00x    Rx   d 8 64 06 00 7D FF FF 00 00 
   0.181723 2  18EFFF00x    Rx   d 8 64 10 01 01 40 03 00 7D 
   0.181739 1  0CF00400x    Rx   d 8 FE FF 7D 00 00 FF F0 FF 
   0.182009 2  08FEF15Bx    Rx   d 8 FF 00 00 CF FF FF FF FF 
   0.182026 1  08FEF15Bx    Rx   d 8 FF 00 00 CF FF FF FF FF 
   0.182288 2  18EFFFF2x    Rx   d 8 64 58 FC F4 80 FF FF FE 
   0.182312 1  18EFFF00x    Rx   d 8 64 10 01 01 40 03 00 7D 
   0.182583 2  18FEF700x    Rx   d 8 FF FF FF FF EE 00 EE 00 
   0.182607 1  08FFFA5Bx    Rx   d 8 00 21 FF FE FF FE FF FF 
   0.184025 1  08FFFBEAx    Rx   d 8 FB 02 12 00 FE FF FF FF 
   0.184500 1  1CFFFAEAx    Rx   d 8 00 2D 0A 00 58 19 22 FF 
   0.184778 1  14EFFFEBx    Rx   d 8 64 43 00 00 00 DD 0F 00 
   0.184795 2  1CFFFAEAx    Rx   d 8 00 2D 0A 00 58 19 22 FF 
   0.187138 1  0CFFF331x    Rx   d 8 31 FF FE FF FF FF FF F8 
   0.187432 1  18FFFF31x    Rx   d 8 87 FF 00 FF FF FF FF FF 
   0.187432 2  0CFFF331x    Rx   d 8 31 FF FE FF FF FF FF F8 
   0.190939 2  0CF00400x    Rx   d 8 FE FF 7D 00 00 FF F0 FF 
   0.191234 1  0CF00400x    Rx   d 8 FE FF 7D 00 00 FF F0 FF 
   0.191946 2  0CF0045Bx    Rx   d 8 FE FF 7D 00 00 FF F0 FF 
   0.191946 1  0CF0045Bx    Rx   d 8 FE FF 7D 00 00 FF F0 FF 
   0.192233 2  0CFFF606x    Rx   d 8 FF FF FF FF FF FF FF FF 
   0.192241 1  18EFFF06x    Rx   d 8 F8 20 F0 FF FF FF FF FF 
   0.192512 2  14FFFFF2x    Rx   d 8 92 42 80 2C B4 14 24 C9 
   0.192528 1  18EFFF31x    Rx   d 8 F4 19 00 FF FF FF FF FF 
   0.192806 2  18EFFF06x    Rx   d 8 F8 20 F0 FF FF FF FF FF 
   0.192823 1  1CFFF831x    Rx   d 8 85 00 00 FF FF FF FF FC 
   0.193093 2  18FFF413x    Rx   d 8 95 AF 7E FF FF FF FF FF 
   0.193265 1  18FFFE26x    Rx   d 8 11 FF FF FF FF FF FF FF 
   0.194076 2  04EF0006x    Rx   d 8 64 15 1E F3 00 00 50 14 
   0.194371 1  14FFFB26x    Rx   d 8 F3 24 FF 00 F0 FF FF FF 
   0.194682 1  0CFFFA26x    Rx   d 8 01 45 FF FF FF FF FF FF 
   0.194961 1  10F0EDEBx    Rx   d 8 EF FF FF FF FF FF FF FF 
   0.195256 1  18FFF826x    Rx   d 8 C7 FF FF FF FF FF FF FF 
   0.195584 1  18FFF826x    Rx   d 8 C6 FF FF FF FF FF FF FF 
   0.197148 1  0CFFF831x    Rx   d 8 28 00 FF FF FF FF FF FF 
   0.197345 2  18EFFA13x    Rx   d 8 AD 12 16 23 16 23 00 00 
   0.197632 2  18FFF8C5x    Rx   d 8 9B 00 7D 00 64 80 F0 00 
   0.200409 1  14FFFFEAx    Rx   d 8 16 FF 00 00 FF FE D7 07 
   0.200884 2  0CF00300x    Rx   d 8 FF FE 00 FF FF FF FF FF 
   0.201170 2  0CEFFF00x    Rx   d 8 64 06 00 7D FF FF 00 00 
   0.201179 1  0CF00300x    Rx   d 8 FF FE 00 FF FF FF FF FF 
   0.201457 2  0CF00400x    Rx   d 8 FE FF 7D 00 00 FF F0 FF 
   0.201474 1  0CEFFF00x    Rx   d 8 64 06 00 7D FF FF 00 00 
   0.201744 2  1CEFFA03x    Rx   d 8 AD 1C 00 00 00 00 00 00 
   0.201760 1  0CF00400x    Rx   d 8 FE FF 7D 00 00 FF F0 FF 
   0.202039 2  14EFFFF2x    Rx   d 8 FC 08 00 00 00 00 FF FF 
   0.202055 1  1CEFFA03x    Rx   d 8 AD 1C 00 00 00 00 00 00 
   0.202334 2  1CEFFA03x    Rx   d 8 AD 1D 03 00 00 00 00 00 
   0.202334 1  18EFFF31x    Rx   d 8 F1 07 CC CC 00 00 00 00 
   0.202620 1  18EFFF31x    Rx   d 8 F0 02 CC 00 30 F0 FF FF 
   0.202620 2  18FE47C5x    Rx   d 8 FF FF FF FF FF FF FF FF 
   0.202907 1  1CEFFA03x    Rx   d 8 AD 1D 03 00 00 00 00 00 
   0.202907 2  1CEFFA03x    Rx   d 8 AD 1E 00 10 00 00 00 00 
   0.203202 2  1CEFFA03x    Rx   d 8 AD 1F 10 00 00 00 00 00 
   0.203202 1  1CEFFA03x    Rx   d 8 AD 1E 00 10 00 00 00 00 
   0.203489 2  1CEFFA03x    Rx   d 8 AD 20 00 00 00 00 FF FF 
   0.203497 1  1CEFFA03x    Rx   d 8 AD 1F 10 00 00 00 00 00 
   0.203776 2  1CEFFA03x    Rx   d 8 AD 21 FF 00 00 00 00 00 
   0.203792 1  1CEFFA03x    Rx   d 8 AD 20 00 00 00 00 FF FF 
   0.204062 2  1CEFFA03x    Rx   d 8 AD 22 00 00 00 00 00 00 
   0.204079 1  1CEFFA03x    Rx   d 8 AD 21 FF 00 00 00 00 00 
   0.204374 1  1CEFFA03x    Rx   d 8 AD 22 00 00 00 00 00 00 
   0.204881 1  08EFFFEBx    Rx   d 8 64 48 FF FF FF FC FF FF 
   0.207192 1  18FFFB31x    Rx   d 8 00 80 F1 FF FF FF FF FF 
   0.210337 1  1CEFFAEAx    Rx   d 8 AD 01 00 40 80 00 00 00 
   0.210616 1  1CEFFAEAx    Rx   d 8 AD 02 FF FF 80 00 C8 64 
   0.210894 1  1CEFFAEAx    Rx   d 8 AD 03 00 21 34 36 46 66 
   0.210919 2  0CF00400x    Rx   d 8 FE FF 7D 00 00 FF F0 FF 
   0.211165 1  1CEFFAEAx    Rx   d 8 AD 04 79 A6 00 1C 74 86 
   0.211460 1  0CF00400x    Rx   d 8 FE FF 7D 00 00 FF F0 FF 
   0.211730 1  1CEFFAEAx    Rx   d 8 AD 05 39 59 8C A8 04 00 
   0.211836 2  08EFFF03x    Rx   d 8 64 61 C1 FF DF 0F FF FF 
   0.212017 1  0CF0045Bx    Rx   d 8 FE FF 7D 00 00 FF F0 FF 
   0.212123 2  0CF0045Bx    Rx   d 8 FE FF 7D 00 00 FF F0 FF 
   0.212295 1  1CEFFAEAx    Rx   d 8 AD 06 80 30 4F 4B 00 00 
   0.212402 2  18EFFFF2x    Rx   d 8 F2 31 FF FF CC F1 FF FF 
   0.212582 1  1CEFFAEAx    Rx   d 8 AD 07 00 00 00 00 00 00 
   0.213983 2  04EF0006x    Rx   d 8 64 15 1F F3 00 00 50 14 
   0.214646 1  14EFFFEBx    Rx   d 8 64 52 01 01 00 00 FF FF 
   0.215859 2  1CFFFA5Bx    Rx   d 8 00 2D 0B FF FF FF FF FF 
   0.215859 1  1CFFFA5Bx    Rx   d 8 00 2D 0B FF FF FF FF FF 
   0.219799 1  0CFF18EBx    Rx   d 8 C0 11 00 06 40 07 04 FF 
   0.220889 2  0CF00300x    Rx   d 8 FF FE 00 FF FF FF FF FF 
   0.221175 2  0CEFFF00x    Rx   d 8 64 06 00 7D FF FF 00 00 
   0.221184 1  0CF00300x    Rx   d 8 FF FE 00 FF FF FF FF FF 
   0.221462 2  0CF00400x    Rx   d 8 FE FF 7D 00 00 FF F0 FF 
   0.221478 1  0CEFFF00x    Rx   d 8 64 06 00 7D FF FF 00 00 
   0.221749 2  1CFFFA00x    Rx   d 8 00 50 28 0E BF 5E FF FF 
   0.221765 1  0CF00400x    Rx   d 8 FE FF 7D 00 00 FF F0 FF 
   0.222044 2  08FFFA03x    Rx   d 8 00 23 DF FF FF FF FF FF 
   0.222052 1  08EFFF5Bx    Rx   d 8 64 57 2F FF FF 00 00 FF 
   0.222330 2  18EFFFF2x    Rx   d 8 64 58 FC F4 80 FF FF FE 
   0.222347 1  10FF145Bx    Rx   d 8 FF FF FF FF FF FF FF FF 
   0.222642 1  1CFFFA5Bx    Rx   d 8 00 86 FF FF FF FF FF FF 
   0.222920 1  1CFFFAEBx    Rx   d 8 00 2D 0A 00 3F 19 1B FF 
   0.223223 2  1CFFFAEBx    Rx   d 8 00 2D 0A 00 3F 19 1B FF 
   0.227139 1  0CFFF331x    Rx   d 8 31 FF FE FF FF FF FF F8 
   0.227426 1  0CFF1B31x    Rx   d 8 27 24 38 00 F0 25 00 00 
   0.227434 2  0CFFF331x    Rx   d 8 31 FF FE FF FF FF FF F8 
   0.227721 1  08FFFB31x    Rx   d 8 00 C2 FF FF FF FF FF FF 
   0.227745 2  0CFF1B31x    Rx   d 8 27 24 38 00 F0 25 00 00 
   0.228409 1  18FECA31x    Rx   d 8 00 FF 00 00 00 00 FF FF 
   0.228679 1  18FEF326x    Rx   d 8 C3 A7 EA 95 A5 2E 49 47 
   0.228712 2  18FECA31x    Rx   d 8 00 FF 00 00 00 00 FF FF 
   0.228982 1  0CFFFF26x    Rx   d 8 51 03 02 1A 0A 06 08 04 
   0.229269 1  0CFEE826x    Rx   d 8 74 28 02 00 77 65 D8 53 
   0.229548 2  0CFEE826x    Rx   d 8 74 28 02 00 77 65 D8 53 
   0.229564 1  18FEE826x    Rx   d 8 74 28 02 00 77 65 D8 53 
   0.229842 2  18FEE826x    Rx   d 8 74 28 02 00 77 65 D8 53 
   0.229867 1  18FFFF26x    Rx   d 8 53 0D F3 5A 10 55 41 54 
   0.230932 2  0CF00400x    Rx   d 8 FE FF 7D 00 00 FF F0 FF 
   0.231227 1  0CF00400x    Rx   d 8 FE FF 7D 00 00 FF F0 FF 
   0.231931 2  0CF0045Bx    Rx   d 8 FE FF 7D 00 00 FF F0 FF 
   0.231940 1  0CF0045Bx    Rx   d 8 FE FF 7D 00 00 FF F0 FF 
   0.232226 2  18EFFF06x    Rx   d 8 F8 20 F0 FF FF FF FF FF 
   0.232235 1  18EFFF06x    Rx   d 8 F8 20 F0 FF FF FF FF FF 
   0.232595 2  0CACFF13x    Rx   d 8 94 7D 14 1F C2 FF FF FF 
   0.232873 2  18FFF413x    Rx   d 8 63 43 00 00 10 E1 FF FF 
   0.232890 1  0CACFF13x    Rx   d 8 94 7D 14 1F C2 FF FF FF 
   0.233168 1  18FFF413x    Rx   d 8 63 43 00 00 10 E1 FF FF 
   0.234020 2  04EF0006x    Rx   d 8 64 15 10 F3 00 00 50 14 
   0.234192 1  08FFFF26x    Rx   d 8 E1 DF 95 64 FE 63 FF 28 
   0.234479 2  08FFFF26x    Rx   d 8 E1 DF 95 64 FE 63 FF 28 
   0.237346 2  18EFFA13x    Rx   d 8 AD 12 16 23 16 23 00 00 
   0.238518 1  18FFFA26x    Rx   d 8 00 31 00 FD FF FF FF FF 
   0.238837 1  0CADFF26x    Rx   d 8 FF FF FC FF FF FF FF FF 
   0.239132 1  18FFF426x    Rx   d 8 64 2A 41 26 00 43 61 2F 
   0.239132 2  0CADFF26x    Rx   d 8 FF FF FC FF FF FF FF FF 
   0.239411 2  18FFF426x    Rx   d 8 64 2A 41 26 00 43 61 2F 
   0.240926 2  0CF00300x    Rx   d 8 FF FE 00 FF FF FF FF FF 
   0.241213 2  0CEFFF00x    Rx   d 8 64 06 00 7D FF FF 00 00 
   0.241221 1  0CF00300x    Rx   d 8 FF FE 00 FF FF FF FF FF 
   0.241500 2  0CF00400x    Rx   d 8 FE FF 7D 00 00 FF F0 FF 
   0.241516 1  0CEFFF00x    Rx   d 8 64 06 00 7D FF FF 00 00 
   0.241795 2  18FEF200x    Rx   d 8 00 00 FF FF FF FF FF FF 
   0.241803 1  0CF00400x    Rx   d 8 FE FF 7D 00 00 FF F0 FF 
   0.242081 2  08FEF103x    Rx   d 8 FF 00 00 CF FF FF FF FF 
   0.242106 1  18EFFFF2x    Rx   d 8 FC 04 FF FE FF FE FF FF 
   0.242376 2  18EFFFF2x    Rx   d 8 FC 04 FF FE FF FE FF FF 
   0.242401 1  18FEF200x    Rx   d 8 00 00 FF FF FF FF FF FF 
   0.242663 2  18FFF413x    Rx   d 8 95 AF 7E FF FF FF FF FF 
   0.242688 1  08FEF103x    Rx   d 8 FF 00 00 CF FF FF FF FF 
   0.242941 2  18FFF413x    Rx   d 8 5F 84 64 C1 86 63 9F FF 
   0.243228 1  18FFF413x    Rx   d 8 5F 84 64 C1 86 63 9F FF 
   0.245972 1  18FFFA26x    Rx   d 8 00 24 00 FF FF FF FF FF 
   0.247365 1  10FFFF31x    Rx   d 8 06 FF FF FF FF FF FF 3F 
   0.249094 1  18FFF826x    Rx   d 8 6A 00 00 00 00 00 00 02 
   0.250937 2  0CF00400x    Rx   d 8 FE FF 7D 00 00 FF F0 FF 
   0.251232 1  0CF00400x    Rx   d 8 FE FF 7D 00 00 FF F0 FF 
   0.251740 2  08EFFF03x    Rx   d 8 64 61 C0 FF DF 0F FF FF 
   0.251936 1  0CF0045Bx    Rx   d 8 FE FF 7D 00 00 FF F0 FF 
   0.252026 2  0CF0045Bx    Rx   d 8 FE FF 7D 00 00 FF F0 FF 
   0.253919 2  04EF0006x    Rx   d 8 64 15 11 F3 00 00 50 14 
   0.254001 1  08FFFB26x    Rx   d 8 F9 01 00 00 FF FF FF FF 
   0.254304 2  08FFFB26x    Rx   d 8 F9 01 00 00 FF FF FF FF 
   0.259604 1  0CFF18EBx    Rx   d 8 C0 29 00 03 40 07 05 FF 
   0.260890 2  0CF00300x    Rx   d 8 FF FE 00 FF FF FF FF FF 
   0.261177 2  0CEFFF00x    Rx   d 8 64 06 00 7D FF FF 00 00 
   0.261193 1  0CF00300x    Rx   d 8 FF FE 00 FF FF FF FF FF 
   0.261464 2  0CF00400x    Rx   d 8 FE FF 7D 00 00 FF F0 FF 
   0.261480 1  0CEFFF00x    Rx   d 8 64 06 00 7D FF FF 00 00 
   0.261758 2  18EF0600x    Rx   d 8 64 0E 13 00 FF FF FF FF 
   0.261775 1  0CF00400x    Rx   d 8 FE FF 7D 00 00 FF F0 FF 
   0.262045 2  08FFF4F2x    Rx   d 8 5E 04 FC 00 00 67 F0 FF 
   0.262332 2  18EFFF00x    Rx   d 8 F8 21 40 00 00 00 00 00 
   0.262619 2  18EFFFF2x    Rx   d 8 64 58 FC F4 80 FF FF FE 
   0.262635 1  18EFFF00x    Rx   d 8 F8 21 40 00 00 00 00 00 
   0.263577 1  10EFFF26x    Rx   d 8 4F 09 00 00 FF FF FF 02 
   0.263864 1  18FECAEAx    Rx   d 8 00 FF 00 00 00 00 FF FF 
   0.264159 2  18FECAEAx    Rx   d 8 00 FF 00 00 00 00 FF FF 
   0.264159 1  18FFFE31x    Rx   d 8 FD FF FF FF FF FF FF FF 
   0.264445 1  08FFFBEAx    Rx   d 8 FB 02 12 00 FE FF FF FF 
   0.264798 1  1CFFFAEAx    Rx   d 8 00 2D 0B FF FF FF 00 64 
   0.265084 2  1CFFFAEAx    Rx   d 8 00 2D 0B FF FF FF 00 64 
   0.265084 1  08EFFFEBx    Rx   d 8 F8 0B 00 00 FE FF F0 00 
   0.265379 1  14EFFFEBx    Rx   d 8 64 47 00 00 00 00 FF FF 
   0.265388 2  08EFFFEBx    Rx   d 8 F8 0B 00 00 FE FF F0 00 
   0.267141 1  0CFFF331x    Rx   d 8 31 FF FE FF FF FF FF F8 
   0.267444 2  0CFFF331x    Rx   d 8 31 FF FE FF FF FF FF F8 
   0.270417 1  14FFFBEAx    Rx   d 8 FB 04 00 00 FF FF FF FF 
   0.270704 1  08FFFAEAx    Rx   d 8 00 32 F2 00 00 FF FF FF 
   0.270942 2  0CF00400x    Rx   d 8 FE FF 7D 00 00 FF F0 FF 
   0.271237 1  0CF00400x    Rx   d 8 FE FF 7D 00 00 FF F0 FF 
   0.271949 2  0CF0045Bx    Rx   d 8 FE FF 7D 00 00 FF F0 FF 
   0.271958 1  0CF0045Bx    Rx   d 8 FE FF 7D 00 00 FF F0 FF 
   0.272244 2  0CFFF606x    Rx   d 8 FF FF FF FF FF FF FF FF 
   0.272252 1  18EFFF06x    Rx   d 8 F8 20 F0 FF FF FF FF FF 
   0.272539 2  18EFFF06x    Rx   d 8 F8 20 F0 FF FF FF FF FF 
   0.272539 1  0CFFEC5Bx    Rx   d 8 FF FF FF FF FF F0 FF FF 
   0.272826 1  18EFFF5Bx    Rx   d 8 64 A4 F0 FF FF FF FF FF 
   0.273113 1  08FFFA5Bx    Rx   d 8 00 22 FE FF FE FE FE FF 
   0.274071 2  04EF0006x    Rx   d 8 64 15 12 F3 00 00 50 14 
   0.274661 1  14EFFFEBx    Rx   d 8 64 45 00 00 00 00 00 00 
   0.274948 1  14EFFFEBx    Rx   d 8 64 46 00 00 FF FF 00 00 
   0.277135 1  0CFF1B31x    Rx   d 8 27 24 38 00 00 8F 00 00 
   0.277348 2  18EFFA13x    Rx   d 8 AD 12 16 23 16 23 00 00 
   0.277626 2  0CFF1B31x    Rx   d 8 27 24 38 00 00 8F 00 00 
   0.280436 1  18FFFBEAx    Rx   d 8 FB 0E F0 FF FF FF FF FF 
   0.280723 1  18FFF426x    Rx   d 8 02 00 00 00 00 FF FF FF 
   0.280862 2  0CF00300x    Rx   d 8 FF FE 00 FF FF FF FF FF 
   0.281026 1  18FFF426x    Rx   d 8 03 00 00 00 00 FF FF FF 
   0.281149 2  0CEFFF00x    Rx   d 8 64 06 00 7D FF FF 00 00 
   0.281321 1  0CF00300x    Rx   d 8 FF FE 00 FF FF FF FF FF 
   0.281444 2  0CF00400x    Rx   d 8 FE FF 7D 00 00 FF F0 FF 
   0.281616 1  0CEFFF00x    Rx   d 8 64 06 00 7D FF FF 00 00 
   0.281731 2  18EFFF00x    Rx   d 8 64 10 01 01 40 03 00 7D 
   0.281903 1  0CF00400x    Rx   d 8 FE FF 7D 00 00 FF F0 FF 
   0.282017 2  08FEF15Bx    Rx   d 8 FF 00 00 CF FF FF FF FF 
   0.282198 1  08FEF15Bx    Rx   d 8 FF 00 00 CF FF FF FF FF 
   0.282304 2  18FED500x    Rx   d 8 FF FF FC FF FF FF FF FF 
   0.282476 1  18EFFF00x    Rx   d 8 64 10 01 01 40 03 00 7D 
   0.282771 1  08FFFA5Bx    Rx   d 8 00 21 FF FE FF FE FF FF 
   0.284696 1  0CEFFFEBx    Rx   d 8 F2 25 00 FF FF FF FF FF 
   0.284991 1  14FFFAEBx    Rx   d 8 02 3B CF FF FF FF FF FF 
   0.287211 1  18FFFF31x    Rx   d 8 87 FF 00 FF FF FF FF FF 
   0.288473 1  18EFFF26x    Rx   d 8 64 42 C0 F0 FF FF FF FF 
   0.290537 1  14FFFA26x    Rx   d 8 03 80 FF FF 00 FE 00 00 
   0.290922 2  0CF00400x    Rx   d 8 FE FF 7D 00 00 FF F0 FF 
   0.291217 1  0CF00400x    Rx   d 8 FE FF 7D 00 00 FF F0 FF 
   0.291741 2  08EFFF03x    Rx   d 8 64 61 C0 FF DF 0F FF FF 
   0.291954 1  0CF0045Bx    Rx   d 8 FE FF 7D 00 00 FF F0 FF 
   0.292028 2  0CF0045Bx    Rx   d 8 FE FF 7D 00 00 FF F0 FF 
   0.292249 1  18EFFF31x    Rx   d 8 F4 19 00 FF FF FF FF FF 
   0.292536 1  1CFFF831x    Rx   d 8 85 00 00 FF FF FF FF FC 
   0.292577 2  18FFF413x    Rx   d 8 95 AF 7E FF FF FF FF FF 
   0.294035 2  04EF0006x    Rx   d 8 64 15 13 F3 00 00 50 14 
   0.295862 2  1CFFFA5Bx    Rx   d 8 00 2D 0C FF FF FF FF FF 
   0.295870 1  1CFFFA5Bx    Rx   d 8 00 2D 0C FF FF FF FF FF 
   0.299827 1  0CFF18EBx    Rx   d 8 C0 03 00 04 40 07 06 FF 
   0.300867 2  0CF00300x    Rx   d 8 FF FE 00 FF FF FF FF FF 
   0.301162 2  0CEFFF00x    Rx   d 8 64 06 00 7D FF FF 00 00 
   0.301170 1  0CF00300x    Rx   d 8 FF FE 00 FF FF FF FF FF 
   0.301449 2  0CF00400x    Rx   d 8 FE FF 7D 00 00 FF F0 FF 
   0.301465 1  0CEFFF00x    Rx   d 8 64 06 00 7D FF FF 00 00 
   0.301752 1  0CF00400x    Rx   d 8 FE FF 7D 00 00 FF F0 FF 
   0.301801 2  1CEFFA03x    Rx   d 8 AD 1C 00 00 00 00 00 00 
   0.302039 1  18EFFF31x    Rx   d 8 F1 07 CC CC 00 00 00 00 
   0.302088 2  18EFFFF2x    Rx   d 8 64 58 FC F4 80 FF FF FE 
   0.302317 1  18EFFF31x    Rx   d 8 F0 02 CC 00 30 F0 FF FF 
   0.302374 2  1CEFFA03x    Rx   d 8 AD 1D 03 00 00 00 00 00 
   0.302604 1  1CEFFA03x    Rx   d 8 AD 1C 00 00 00 00 00 00 
   0.302661 2  1CEFFA03x    Rx   d 8 AD 1E 00 10 00 00 00 00 
   0.302891 1  1CFFFAEBx    Rx   d 8 00 2D 0B FF FF FF 00 00 
   0.302948 2  1CEFFA03x    Rx   d 8 AD 1F 10 00 00 00 00 00 
   0.303177 1  1CEFFA03x    Rx   d 8 AD 1D 03 00 00 00 00 00 
   0.303243 2  1CEFFA03x    Rx   d 8 AD 20 00 00 00 00 FF FF 
   0.303472 1  1CEFFA03x    Rx   d 8 AD 1E 00 10 00 00 00 00 
   0.303529 2  1CEFFA03x    Rx   d 8 AD 21 FF 00 00 00 00 00 
   0.303751 1  18EFFF26x    Rx   d 8 F2 3B 07 FF FF FF FF FF 
   0.303816 2  1CEFFA03x    Rx   d 8 AD 22 00 00 00 00 00 00 
   0.304046 1  1CEFFA03x    Rx   d 8 AD 1F 10 00 00 00 00 00 
   0.304103 2  1CFFFAEBx    Rx   d 8 00 2D 0B FF FF FF 00 00 
   0.304332 1  1CEFFA03x    Rx   d 8 AD 20 00 00 00 00 FF FF 
   0.304627 1  1CEFFA03x    Rx   d 8 AD 21 FF 00 00 00 00 00 
   0.304914 1  1CEFFA03x    Rx   d 8 AD 22 00 00 00 00 00 00 
   0.305201 1  08EFFFEBx    Rx   d 8 64 48 FF FF FF FC FF FF 
   0.307142 1  0CFFF331x    Rx   d 8 31 FF FE FF FF FF FF F8 
   0.307437 2  0CFFF331x    Rx   d 8 31 FF FE FF FF FF FF F8 
   0.310337 1  1CEFFAEAx    Rx   d 8 AD 01 00 40 80 00 00 00 
   0.310624 1  1CEFFAEAx    Rx   d 8 AD 02 FF FF 80 00 C8 64 
   0.310894 1  1CEFFAEAx    Rx   d 8 AD 03 00 21 34 36 46 66 
   0.310927 2  0CF00400x    Rx   d 8 FE FF 7D 00 00 FF F0 FF 
   0.311173 1  1CEFFAEAx    Rx   d 8 AD 04 79 A6 00 1C 74 86 
   0.311459 1  0CF00400x    Rx   d 8 FE FF 7D 00 00 FF F0 FF 
   0.311730 1  1CEFFAEAx    Rx   d 8 AD 05 39 59 8C A8 04 00 
   0.311926 2  0CF0045Bx    Rx   d 8 FE FF 7D 00 00 FF F0 FF 
   0.312016 1  0CF0045Bx    Rx   d 8 FE FF 7D 00 00 FF F0 FF 
   0.312221 2  18EFFF06x    Rx   d 8 F8 20 F0 FF FF FF FF FF 
   0.312311 1  18EFFF06x    Rx   d 8 F8 20 F0 FF FF FF FF FF 
   0.312590 1  1CEFFAEAx    Rx   d 8 AD 06 80 30 4F 4B 00 00 
   0.312877 1  1CEFFAEAx    Rx   d 8 AD 07 00 00 00 00 00 00 
   0.313958 2  04EF0006x    Rx   d 8 64 15 14 F3 00 00 50 14 
   0.317136 1  0CFFFA31x    Rx   d 8 00 2F 22 FF FF FF FF FF 
   0.317366 2  18EFFA13x    Rx   d 8 AD 12 16 23 16 23 00 00 
   0.320528 1  18FFFE26x    Rx   d 8 37 FF FF FF FF 0E FF FF 
   0.320888 2  0CF00300x    Rx   d 8 FF FE 00 FF FF FF FF FF 
   0.321175 2  0CEFFF00x    Rx   d 8 64 06 00 7D FF FF 00 00 
   0.321183 1  0CF00300x    Rx   d 8 FF FE 00 FF FF FF FF FF 
   0.321462 2  0CF00400x    Rx   d 8 FE FF 7D 00 00 FF F0 FF 
   0.321478 1  0CEFFF00x    Rx   d 8 64 06 00 7D FF FF 00 00 
   0.321757 2  0CFD9200x    Rx   d 8 F0 FF FF FF FF FF FF FF 
   0.321773 1  0CF00400x    Rx   d 8 FE FF 7D 00 00 FF F0 FF 
   0.322043 2  08FFFA03x    Rx   d 8 00 23 DF FF FF FF FF FF 
   0.322052 1  08EFFF5Bx    Rx   d 8 64 57 2F FF FF 00 00 FF 
   0.322338 2  18FE4700x    Rx   d 8 7F FF FF FF FF FF FF FF 
   0.322347 1  10FF145Bx    Rx   d 8 FF FF FF FF FF FF FF FF 
   0.322625 2  18FFF4C5x    Rx   d 8 65 0F 00 00 FF 81 F0 FF 
   0.322912 2  1CFFFA00x    Rx   d 8 00 50 28 0E BF 5E FF FF 
   0.323592 1  14FFFA26x    Rx   d 8 03 81 00 00 C8 00 FF FF 
   0.327131 1  0CFF1B31x    Rx   d 8 27 24 38 00 10 35 00 00 
   0.327426 2  0CFF1B31x    Rx   d 8 27 24 38 00 10 35 00 00 
   0.327426 1  18FFFF31x    Rx   d 8 09 FF FF FF FF F3 FF FF 
   0.327720 1  08FFF831x    Rx   d 8 16 FF FF FF FF FF FF FF 
   0.328007 1  08FFFB31x    Rx   d 8 00 C2 FF FF FF FF FF FF 
   0.330457 1  14FFFFEAx    Rx   d 8 16 FF 00 00 FF FE D7 07 
   0.330743 1  1CE6FF26x    Rx   d 8 FE FE FF FF FF FF 00 00 
   0.330883 2  0CF00400x    Rx   d 8 FE FF 7D 00 00 FF F0 FF 
   0.331177 1  0CF00400x    Rx   d 8 FE FF 7D 00 00 FF F0 FF 
   0.331841 2  08EFFF03x    Rx   d 8 64 61 C1 FF DF 0F FF FF 
   0.331939 1  0CF0045Bx    Rx   d 8 FE FF 7D 00 00 FF F0 FF 
   0.332128 2  0CF0045Bx    Rx   d 8 FE FF 7D 00 00 FF F0 FF 
   0.332570 2  0CACFF13x    Rx   d 8 94 7D 14 1F C2 FF FF FF 
   0.332857 2  18FFF413x    Rx   d 8 63 43 02 00 10 E1 FF FF 
   0.332865 1  0CACFF13x    Rx   d 8 94 7D 14 1F C2 FF FF FF 
   0.333152 1  18FFF413x    Rx   d 8 63 43 02 00 10 E1 FF FF 
   0.333963 2  04EF0006x    Rx   d 8 64 15 15 F3 00 00 50 14 
   0.334118 1  08FFFB26x    Rx   d 8 F9 01 00 00 FF FF FF FF 
   0.334422 2  08FFFB26x    Rx   d 8 F9 01 00 00 FF FF FF FF 
   0.339681 1  0CFF18EBx    Rx   d 8 C0 0D 00 07 40 07 07 FF 
   0.340926 2  0CF00300x    Rx   d 8 FF FE 00 FF FF FF FF FF 
   0.341221 2  0CEFFF00x    Rx   d 8 64 06 00 7D FF FF 00 00 
   0.341229 1  0CF00300x    Rx   d 8 FF FE 00 FF FF FF FF FF 
   0.341508 2  0CF00400x    Rx   d 8 FE FF 7D 00 00 FF F0 FF 
   0.341524 1  0CEFFF00x    Rx   d 8 64 06 00 7D FF FF 00 00 
   0.341794 2  08FEF103x    Rx   d 8 FF 00 00 CF FF FF FF FF 
   0.341811 1  0CF00400x    Rx   d 8 FE FF 7D 00 00 FF F0 FF 
   0.342081 2  18EFFFF2x    Rx   d 8 64 58 FC F4 80 FF FF FE 
   0.342106 1  14FFFB5Bx    Rx   d 8 21 00 FD FF FF FF FF FF 
   0.342368 2  18FEF200x    Rx   d 8 00 00 FF FF FF FF FF FF 
   0.342392 1  08FEF103x    Rx   d 8 FF 00 00 CF FF FF FF FF 
   0.342663 2  18FFF413x    Rx   d 8 95 BF 7E FF FF FF FF FF 
   0.342687 1  18FEF200x    Rx   d 8 00 00 FF FF FF FF FF FF 
   0.342941 2  18FFF413x    Rx   d 8 5F 81 64 C1 83 63 AF FF 
   0.343228 1  18FFF413x    Rx   d 8 5F 81 64 C1 83 63 AF FF 
   0.343515 1  18FFFA26x    Rx   d 8 00 31 00 FD FF FF FF FF 
   0.344088 1  08FFFBEAx    Rx   d 8 FB 02 12 00 FE FF FF FF 
   0.344637 1  1CFFFAEAx    Rx   d 8 00 2D 0C 06 15 FF FF FF 
   0.344932 2  1CFFFAEAx    Rx   d 8 00 2D 0C 06 15 FF FF FF 
   0.345858 1  18FFFA26x    Rx   d 8 00 24 00 FF FF FF FF FF 
   0.347144 1  0CFFF331x    Rx   d 8 31 FF FE FF FF FF FF F8 
   0.347447 2  0CFFF331x    Rx   d 8 31 FF FE FF FF FF FF F8 
   0.350920 2  0CF00400x    Rx   d 8 FE FF 7D 00 00 FF F0 FF 
   0.351215 1  0CF00400x    Rx   d 8 FE FF 7D 00 00 FF F0 FF 
   0.351936 2  0CF0045Bx    Rx   d 8 FE FF 7D 00 00 FF F0 FF 
   0.351936 1  0CF0045Bx    Rx   d 8 FE FF 7D 00 00 FF F0 FF 
   0.352231 2  0CFFF606x    Rx   d 8 FF FF FF FF FF FF FF FF 
   0.352231 1  18EFFF06x    Rx   d 8 F8 20 F0 FF FF FF FF FF 
   0.352518 2  18EFFF06x    Rx   d 8 F8 20 F0 FF FF FF FF FF 
   0.352796 2  0CFFFF13x    Rx   d 8 93 42 80 2C B4 14 24 C9 
   0.353075 1  0CFFFF13x    Rx   d 8 93 42 80 2C B4 14 24 C9 
   0.354017 2  04EF0006x    Rx   d 8 64 15 16 F3 00 00 50 14 
   0.355360 1  18FFF826x    Rx   d 8 C2 FF FF 00 FE 00 FE FF 
   0.355672 1  18FFF826x    Rx   d 8 C3 FF FF 00 FE 00 FE FF 
   0.355983 1  18FFF826x    Rx   d 8 C4 FF FF 00 FE 00 FE FF 
   0.356302 1  18FFF826x    Rx   d 8 C5 FF FF 00 FE 00 FE FF 
   0.357351 2  18EFFA13x    Rx   d 8 AD 12 16 23 16 23 00 00 
   0.359194 1  14FFFA26x    Rx   d 8 03 83 F1 FF FF FF FF FF 
   0.360890 2  0CF00300x    Rx   d 8 FF FE 00 FF FF FF FF FF 
   0.361185 2  0CEFFF00x    Rx   d 8 64 06 00 7D FF FF 00 00 
   0.361193 1  0CF00300x    Rx   d 8 FF FE 00 FF FF FF FF FF 
   0.361472 2  0CF00400x    Rx   d 8 FE FF 7D 00 00 FF F0 FF 
   0.361488 1  0CEFFF00x    Rx   d 8 64 06 00 7D FF FF 00 00 
   0.361758 2  18EF0600x    Rx   d 8 64 0E 1D 00 FF FF FF FF 
   0.361775 1  0CF00400x    Rx   d 8 FE FF 7D 00 00 FF F0 FF 
   0.362037 2  08FFF4F2x    Rx   d 8 5E 04 FC 00 00 67 F0 FF 
   0.362332 2  18EFFF00x    Rx   d 8 F8 21 40 00 00 00 00 00 
   0.362635 1  18EFFF00x    Rx   d 8 F8 21 40 00 00 00 00 00 
   0.363323 1  18FFFE31x    Rx   d 8 FD FF FF FF FF FF FF FF 
   0.364642 1  08EFFFEBx    Rx   d 8 F8 0B 00 00 FE FF F0 00 
   0.364945 2  08EFFFEBx    Rx   d 8 F8 0B 00 00 FE FF F0 00 
   0.370401 1  14FFFEEAx    Rx   d 8 47 12 03 00 00 9B 82 FF 
   0.370688 1  08FFFAEAx    Rx   d 8 00 32 F2 00 00 FF FF FF 
   0.370966 2  0CF00400x    Rx   d 8 FE FF 7D 00 00 FF F0 FF 
   0.371261 1  0CF00400x    Rx   d 8 FE FF 7D 00 00 FF F0 FF 
   0.371777 2  08EFFF03x    Rx   d 8 64 61 C1 FF DF 0F FF FF 
   0.371957 1  0CF0045Bx    Rx   d 8 FE FF 7D 00 00 FF F0 FF 
   0.372056 2  0CF0045Bx    Rx   d 8 FE FF 7D 00 00 FF F0 FF 
   0.372244 1  0CFFEC5Bx    Rx   d 8 FF FF FF FF FF F0 FF FF 
   0.372539 1  18FFFD26x    Rx   d 8 00 07 F0 FF FF FF FF FF 
   0.372826 1  08FFFA5Bx    Rx   d 8 00 22 FE FF FE FE FE FF 
   0.373989 2  04EF0006x    Rx   d 8 64 15 17 F3 00 00 50 14 
   0.375840 2  1CFFFA5Bx    Rx   d 8 00 2D 0D FF FF FF FF FF 
   0.375848 1  1CFFFA5Bx    Rx   d 8 00 2D 0D FF FF FF FF FF 
   0.376127 2  18FECAF2x    Rx   d 8 00 FF 00 00 00 00 FF FF 
   0.376422 2  18FECA06x    Rx   d 8 00 FF 00 00 00 00 FF FF 
   0.377135 1  0CFF1B31x    Rx   d 8 27 24 38 00 20 6C 00 00 
   0.377421 2  0CFF1B31x    Rx   d 8 27 24 38 00 20 6C 00 00 
   0.380469 1  0CFF18EBx    Rx   d 8 C0 2C 00 01 40 07 01 FF 
   0.380837 2  0CF00300x    Rx   d 8 FF FE 00 FF FF FF FF FF 
   0.381132 2  0CEFFF00x    Rx   d 8 64 06 00 7D FF FF 00 00 
   0.381140 1  0CF00300x    Rx   d 8 FF FE 00 FF FF FF FF FF 
   0.381419 2  0CF00400x    Rx   d 8 FE FF 7D 00 00 FF F0 FF 
   0.381435 1  0CEFFF00x    Rx   d 8 64 06 00 7D FF FF 00 00 
   0.381706 2  18EFFF00x    Rx   d 8 64 10 01 01 40 03 00 7D 
   0.381722 1  0CF00400x    Rx   d 8 FE FF 7D 00 00 FF F0 FF 
   0.381984 2  18EFFFF2x    Rx   d 8 64 58 FC F4 80 FF FF FE 
   0.382009 1  18EFFF00x    Rx   d 8 64 10 01 01 40 03 00 7D 
   0.382279 2  08FEF15Bx    Rx   d 8 FF 00 00 CF FF FF FF FF 
   0.382296 1  08FEF15Bx    Rx   d 8 FF 00 00 CF FF FF FF FF 
   0.382566 2  18FEDF00x    Rx   d 8 7D A0 28 FF FF FF FF FF 
   0.382615 1  08FFFA5Bx    Rx   d 8 00 21 FF FE FF FE FF FF 
   0.382902 1  18FEDF00x    Rx   d 8 7D A0 28 FF FF FF FF FF 
   0.383426 1  1CFFFAEBx    Rx   d 8 00 2D 0C 06 1F FF FF FF 
   0.383721 2  1CFFFAEBx    Rx   d 8 00 2D 0C 06 1F FF FF FF 
   0.387137 1  0CFFF331x    Rx   d 8 31 FF FE FF FF FF FF F8 
   0.387432 1  18FFFF31x    Rx   d 8 87 FF 00 FF FF FF FF FF 
   0.387440 2  0CFFF331x    Rx   d 8 31 FF FE FF FF FF FF F8 
   0.390922 2  0CF00400x    Rx   d 8 FE FF 7D 00 00 FF F0 FF 
   0.391217 1  0CF00400x    Rx   d 8 FE FF 7D 00 00 FF F0 FF 
   0.391938 2  0CF0045Bx    Rx   d 8 FE FF 7D 00 00 FF F0 FF 
   0.391938 1  0CF0045Bx    Rx   d 8 FE FF 7D 00 00 FF F0 FF 
   0.392224 1  10FD925Bx    Rx   d 8 F0 FF FF FF FF FF FF FF 
   0.392232 2  18EFFF06x    Rx   d 8 F8 20 F0 FF FF FF FF FF 
   0.392519 2  10FD925Bx    Rx   d 8 F0 FF FF FF FF FF FF FF 
   0.392519 1  18EFFF06x    Rx   d 8 F8 20 F0 FF FF FF FF FF 
   0.392798 2  18FFF413x    Rx   d 8 95 AF 7E FF FF FF FF FF 
   0.392814 1  18EFFF31x    Rx   d 8 F4 19 00 FF FF FF FF FF 
   0.393101 1  1CFFF831x    Rx   d 8 85 00 00 FF FF FF FF FC 
   0.394018 2  04EF0006x    Rx   d 8 64 15 18 F3 00 00 50 14 
   0.394485 1  0CFFFA26x    Rx   d 8 01 45 FF FF FF FF FF FF 
   0.397156 1  0CFFF831x    Rx   d 8 28 00 FF FF FF FF FF FF 
   0.397344 2  18EFFA13x    Rx   d 8 AD 12 16 23 16 23 00 00 
   0.398467 1  1CEC2626x    Rx   d 8 10 13 00 03 03 00 E7 00 
   0.400891 2  0CF00300x    Rx   d 8 FF FE 00 FF FF FF FF FF 
   0.401186 2  0CEFFF00x    Rx   d 8 64 06 00 7D FF FF 00 00 
   0.401195 1  0CF00300x    Rx   d 8 FF FE 00 FF FF FF FF FF 
   0.401473 2  0CF00400x    Rx   d 8 FE FF 7D 00 00 FF F0 FF 
   0.401489 1  0CEFFF00x    Rx   d 8 64 06 00 7D FF FF 00 00 
   0.401760 2  18FEEF00x    Rx   d 8 03 FF FF 00 FF FF FF FA 
   0.401776 1  0CF00400x    Rx   d 8 FE FF 7D 00 00 FF F0 FF 
   0.402046 2  1CEFFA03x    Rx   d 8 AD 1C 00 00 00 00 00 00 
   0.402071 1  18EFFF31x    Rx   d 8 F1 07 CC CC 00 00 00 00 
   0.402341 2  1CEFFA03x    Rx   d 8 AD 1D 03 00 00 00 00 00 
   0.402350 1  18EFFF31x    Rx   d 8 F0 02 CC 00 30 F0 FF FF 
   0.402628 2  1CEFFA03x    Rx   d 8 AD 1E 00 10 00 00 00 00 
   0.402644 1  18FEEF00x    Rx   d 8 03 FF FF 00 FF FF FF FA 
   0.402915 2  1CEFFA03x    Rx   d 8 AD 1F 10 00 00 00 00 00 
   0.402931 1  1CEFFA03x    Rx   d 8 AD 1C 00 00 00 00 00 00 
   0.403202 2  1CEFFA03x    Rx   d 8 AD 20 00 00 00 00 FF FF 
   0.403210 1  1CEC2626x    Rx   d 8 11 03 01 FF FF 00 E7 00 
   0.403488 2  1CEFFA03x    Rx   d 8 AD 21 FF 00 00 00 00 00 
   0.403496 1  1CEFFA03x    Rx   d 8 AD 1D 03 00 00 00 00 00 
   0.403775 2  1CEFFA03x    Rx   d 8 AD 22 00 00 00 00 00 00 
   0.403791 1  1CEFFA03x    Rx   d 8 AD 1E 00 10 00 00 00 00 
   0.404078 1  1CEFFA03x    Rx   d 8 AD 1F 10 00 00 00 00 00 
   0.404373 1  1CEFFA03x    Rx   d 8 AD 20 00 00 00 00 FF FF 
   0.404660 1  1CEFFA03x    Rx   d 8 AD 21 FF 00 00 00 00 00 
   0.404946 1  08EFFFEBx    Rx   d 8 64 48 FF FF FF FC FF FF 
   0.405233 1  1CEFFA03x    Rx   d 8 AD 22 00 00 00 00 00 00 
   0.407166 1  10FFFF31x    Rx   d 8 EC FF FF FF FF FD FF FF 
   0.407461 2  10FFFF31x    Rx   d 8 EC FF FF FF FF FD FF FF 
   0.407740 2  18FFF8C5x    Rx   d 8 9B 00 7D 00 64 80 F0 00 
   0.410402 1  1CEFFAEAx    Rx   d 8 AD 01 00 40 80 00 00 00 
   0.410681 1  1CEFFAEAx    Rx   d 8 AD 02 FF FF 80 00 C8 64 
   0.410927 2  0CF00400x    Rx   d 8 FE FF 7D 00 00 FF F0 FF 
   0.410951 1  1CEFFAEAx    Rx   d 8 AD 03 00 21 34 36 46 66 
   0.411246 1  0CF00400x    Rx   d 8 FE FF 7D 00 00 FF F0 FF 
   0.411516 1  1CEFFAEAx    Rx   d 8 AD 04 79 A6 00 1C 74 86 
   0.411746 2  08EFFF03x    Rx   d 8 64 61 C0 FF DF 0F FF FF 
   0.411795 1  1CEFFAEAx    Rx   d 8 AD 05 39 59 8C A8 04 00 
   0.412024 2  0CF0045Bx    Rx   d 8 FE FF 7D 00 00 FF F0 FF 
   0.412082 1  0CF0045Bx    Rx   d 8 FE FF 7D 00 00 FF F0 FF 
   0.412368 1  18FE475Bx    Rx   d 8 FF FF FF FF FF FF FF FF 
   0.412647 1  1CEFFAEAx    Rx   d 8 AD 06 80 30 4F 4B 00 00 
   0.412934 1  18EFFF5Bx    Rx   d 8 64 A3 FF FF FF FF FF FF 
   0.413220 1  1CEFFAEAx    Rx   d 8 AD 07 00 00 00 00 00 00 
   0.413548 1  1CEB2626x    Rx   d 8 01 B3 4D 04 0E 00 20 20 
   0.414040 2  04EF0006x    Rx   d 8 64 15 19 F3 00 00 50 14 
   0.414277 1  08FFFB26x    Rx   d 8 F9 01 00 00 FF FF FF FF 
   0.414580 2  08FFFB26x    Rx   d 8 F9 01 00 00 FF FF FF FF 
   0.418250 1  1CEB2626x    Rx   d 8 02 34 31 2E 35 31 38 33 
   0.419340 1  1CEB2626x    Rx   d 8 03 35 35 35 38 B0 FF FF 
   0.419823 1  0CFF18EBx    Rx   d 8 C0 37 00 02 40 07 02 FF 
   0.420896 2  0CF00300x    Rx   d 8 FF FE 00 FF FF FF FF FF 
   0.421183 2  0CEFFF00x    Rx   d 8 64 06 00 7D FF FF 00 00 
   0.421199 1  0CF00300x    Rx   d 8 FF FE 00 FF FF FF FF FF 
   0.421478 2  0CF00400x    Rx   d 8 FE FF 7D 00 00 FF F0 FF 
   0.421486 1  0CEFFF00x    Rx   d 8 64 06 00 7D FF FF 00 00 
   0.421765 2  1CFFFA00x    Rx   d 8 00 50 28 0E BF 5E FF FF 
   0.421781 1  0CF00400x    Rx   d 8 FE FF 7D 00 00 FF F0 FF 
   0.422051 2  08FFFA03x    Rx   d 8 00 23 DF FF FF FF FF FF 
   0.422068 1  08EFFF5Bx    Rx   d 8 64 57 2F FF FF 00 00 FF 
   0.422338 2  18EFFFF2x    Rx   d 8 64 58 FC F4 80 FF FF FE 
   0.422354 1  10FF145Bx    Rx   d 8 FF FF FF FF FF FF FF FF 
   0.422649 1  18FFF8FBx    Rx   d 8 EB 00 55 00 00 00 00 00 
   0.422936 1  1CFFFA5Bx    Rx   d 8 00 86 FF FF FF FF FF FF 
   0.423215 1  1CEC2626x    Rx   d 8 13 13 00 03 FF 00 E7 00 
   0.423673 1  18FEF326x    Rx   d 8 C3 A7 EA 95 A5 2E 49 47 
   0.423976 1  0CFFFF26x    Rx   d 8 51 03 02 1A 0A 06 08 04 
   0.424263 1  08FFFBEAx    Rx   d 8 FB 02 12 00 FE FF FF FF 
   0.424534 1  18FEE826x    Rx   d 8 73 28 01 00 76 65 D8 53 
   0.424812 2  18FEE826x    Rx   d 8 73 28 01 00 76 65 D8 53 
   0.424820 1  1CFFFAEAx    Rx   d 8 00 2D 0D FF FF FF FF FF 
   0.425091 1  0CFEE826x    Rx   d 8 73 28 01 00 76 65 D8 53 
   0.425115 2  1CFFFAEAx    Rx   d 8 00 2D 0D FF FF FF FF FF 
   0.425394 2  0CFEE826x    Rx   d 8 73 28 01 00 76 65 D8 53 
   0.425402 1  18FFFF26x    Rx   d 8 53 0D F4 5A 10 55 41 54 
   0.427139 1  0CFFF331x    Rx   d 8 31 FF FE FF FF FF FF F8 
   0.427425 1  0CFF1B31x    Rx   d 8 27 24 38 00 30 D6 00 00 
   0.427442 2  0CFFF331x    Rx   d 8 31 FF FE FF FF FF FF F8 
   0.427712 1  08FFFB31x    Rx   d 8 00 C2 FF FF FF FF FF FF 
   0.427720 2  0CFF1B31x    Rx   d 8 27 24 38 00 30 D6 00 00 
   0.428531 1  08FFFF26x    Rx   d 8 E1 DF 95 64 FB 63 FF 28 
   0.428810 2  08FFFF26x    Rx   d 8 E1 DF 95 64 FB 63 FF 28 
   0.430948 2  0CF00400x    Rx   d 8 FE FF 7D 00 00 FF F0 FF 
   0.431243 1  0CF00400x    Rx   d 8 FE FF 7D 00 00 FF F0 FF 
   0.431947 2  0CF0045Bx    Rx   d 8 FE FF 7D 00 00 FF F0 FF 
   0.431955 1  0CF0045Bx    Rx   d 8 FE FF 7D 00 00 FF F0 FF 
   0.432234 2  0CFFF606x    Rx   d 8 FF FF FF FF FF FF FF FF 
   0.432242 1  18EFFF06x    Rx   d 8 F8 20 F0 FF FF FF FF FF 
   0.432529 2  18EFFF06x    Rx   d 8 F8 20 F0 FF FF FF FF FF 
   0.432816 2  0CACFF13x    Rx   d 8 94 7D 14 1F C2 FF FF FF 
   0.433094 2  18FFF413x    Rx   d 8 63 43 02 00 10 E1 FF FF 
   0.433102 1  0CACFF13x    Rx   d 8 94 7D 14 1F C2 FF FF FF 
   0.433389 1  18FFF413x    Rx   d 8 63 43 02 00 10 E1 FF FF 
   0.433676 1  0CADFF26x    Rx   d 8 FF FF FC FF FF FF FF FF 
   0.433971 2  0CADFF26x    Rx   d 8 FF FF FC FF FF FF FF FF 
   0.433971 1  18FFF426x    Rx   d 8 64 2A 41 26 00 43 71 2F 
   0.434257 2  04EF0006x    Rx   d 8 64 15 1A F3 00 00 50 14 
   0.434528 2  18FFF426x    Rx   d 8 64 2A 41 26 00 43 71 2F 
   0.437346 2  18EFFA13x    Rx   d 8 AD 12 16 23 16 23 00 00 
   0.438534 1  1CEC2626x    Rx   d 8 10 13 00 03 03 00 E7 00 
   0.438845 1  18FFFA26x    Rx   d 8 00 31 00 FD FF FF FF FF 
   0.440934 2  0CF00300x    Rx   d 8 FF FE 00 FF FF FF FF FF 
   0.441229 2  0CEFFF00x    Rx   d 8 64 06 00 7D FF FF 00 00 
   0.441237 1  0CF00300x    Rx   d 8 FF FE 00 FF FF FF FF FF 
   0.441516 2  0CF00400x    Rx   d 8 FE FF 7D 00 00 FF F0 FF 
   0.441532 1  0CEFFF00x    Rx   d 8 64 06 00 7D FF FF 00 00 
   0.441802 2  08FEF103x    Rx   d 8 FF 00 00 CF FF FF FF FF 
   0.441819 1  0CF00400x    Rx   d 8 FE FF 7D 00 00 FF F0 FF 
   0.442097 2  18FEF200x    Rx   d 8 00 00 FF FF FF FF FF FF 
   0.442114 1  08FEF103x    Rx   d 8 FF 00 00 CF FF FF FF FF 
   0.442408 1  18FEF200x    Rx   d 8 00 00 FF FF FF FF FF FF 
   0.442580 2  18FFF413x    Rx   d 8 95 AF 7E FF FF FF FF FF 
   0.442851 2  18FFF413x    Rx   d 8 5F 89 64 C1 8B 63 0F FF 
   0.443138 1  18FFF413x    Rx   d 8 5F 89 64 C1 8B 63 0F FF 
   0.443416 1  1CEC2626x    Rx   d 8 11 03 01 FF FF 00 E7 00 
   0.445931 1  18FFFA26x    Rx   d 8 00 24 00 FF FF FF FF FF 
   0.447365 1  10FFFF31x    Rx   d 8 06 FF FF FF FF FF FF 3F 
   0.450928 2  0CF00400x    Rx   d 8 FE FF 7D 00 00 FF F0 FF 
   0.451223 1  0CF00400x    Rx   d 8 FE FF 7D 00 00 FF F0 FF 
   0.451837 2  08EFFF03x    Rx   d 8 64 61 C0 FF DF 0F FF FF 
   0.451936 1  0CF0045Bx    Rx   d 8 FE FF 7D 00 00 FF F0 FF 
   0.452124 2  0CF0045Bx    Rx   d 8 FE FF 7D 00 00 FF F0 FF 
   0.453246 1  1CEB2626x    Rx   d 8 01 B3 52 04 0E 00 20 2D 
   0.453550 1  1CEB2626x    Rx   d 8 02 39 30 2E 34 30 32 31 
   0.453943 2  04EF0006x    Rx   d 8 64 15 1B F3 00 00 50 14 
   0.459579 1  0CFF18EBx    Rx   d 8 C0 02 00 05 40 07 03 FF 
   0.460414 1  18FE47EAx    Rx   d 8 FF FF FF FF FF FF FF FF 
   0.460701 1  14FFFFEAx    Rx   d 8 16 FF 00 00 FF FE D7 07 
   0.460914 2  0CF00300x    Rx   d 8 FF FE 00 FF FF FF FF FF 
   0.461209 2  0CEFFF00x    Rx   d 8 64 06 00 7D FF FF 00 00 
   0.461217 1  0CF00300x    Rx   d 8 FF FE 00 FF FF FF FF FF 
   0.461496 2  0CF00400x    Rx   d 8 FE FF 7D 00 00 FF F0 FF 
   0.461512 1  0CEFFF00x    Rx   d 8 64 06 00 7D FF FF 00 00 
   0.461791 2  18EF0600x    Rx   d 8 64 0E 27 00 FF FF FF FF 
   0.461799 1  0CF00400x    Rx   d 8 FE FF 7D 00 00 FF F0 FF 
   0.462069 2  08FFF4F2x    Rx   d 8 5E 04 FC 00 00 67 F0 FF 
   0.462364 2  18EFFF00x    Rx   d 8 F8 21 40 00 00 00 00 00 
   0.462651 2  18EFFF03x    Rx   d 8 64 68 1F FF F0 FF FF FF 
   0.462667 1  18EFFF00x    Rx   d 8 F8 21 40 00 00 00 00 00 
   0.462929 2  18EFFFF2x    Rx   d 8 64 58 FC F4 80 FF FF FE 
   0.462954 1  1CFFFAEBx    Rx   d 8 00 2D 0D FF FF FF FF FF 
   0.463249 2  1CFFFAEBx    Rx   d 8 00 2D 0D FF FF FF FF FF 
   0.463429 1  1CEB2626x    Rx   d 8 03 35 39 34 33 B0 FF FF 
   0.463724 1  18FFFE31x    Rx   d 8 FD FF FF FF FF FF FF FF 
   0.464535 1  1CECFFEBx    Rx   d 8 20 0A 00 02 FF CA FE 00 
   0.464830 2  1CECFFEBx    Rx   d 8 20 0A 00 02 FF CA FE 00 
   0.464928 1  08EFFFEBx    Rx   d 8 F8 0B 00 00 FE FF F0 00 
   0.465223 2  08EFFFEBx    Rx   d 8 F8 0B 00 00 FE FF F0 00 
   0.467148 1  0CFFF331x    Rx   d 8 31 FF FE FF FF FF FF F8 
   0.467443 2  0CFFF331x    Rx   d 8 31 FF FE FF FF FF FF F8 
   0.468107 1  1CEC2626x    Rx   d 8 13 13 00 03 FF 00 E7 00 
   0.470532 1  08FFFAEAx    Rx   d 8 00 32 F2 00 00 FF FF FF 
   0.470949 2  0CF00400x    Rx   d 8 FE FF 7D 00 00 FF F0 FF 
   0.471187 1  18FECA65x    Rx   d 8 00 FF 00 00 00 00 FF FF 
   0.471474 1  0CF00400x    Rx   d 8 FE FF 7D 00 00 FF F0 FF 
   0.471482 2  18FECA65x    Rx   d 8 00 FF 00 00 00 00 FF FF 
   0.471777 2  18EFFF03x    Rx   d 8 64 62 FF FF FF FF FF FF 
   0.471957 1  0CF0045Bx    Rx   d 8 FE FF 7D 00 00 FF F0 FF 
   0.472064 2  0CF0045Bx    Rx   d 8 FE FF 7D 00 00 FF F0 FF 
   0.472252 1  18EFFF06x    Rx   d 8 F8 20 F0 FF FF FF FF FF 
   0.472358 2  18EFFF06x    Rx   d 8 F8 20 F0 FF FF FF FF FF 
   0.472539 1  0CFFEC5Bx    Rx   d 8 FF FF FF FF FF F0 FF FF 
   0.472834 1  08FFFA5Bx    Rx   d 8 00 22 FE FF FE FE FE FF 
   0.474062 2  04EF0006x    Rx   d 8 64 15 1C F3 00 00 50 14 
   0.477134 1  0CFF1B31x    Rx   d 8 27 24 38 00 40 DE 00 00 
   0.477347 2  18EFFA13x    Rx   d 8 AD 12 16 23 16 23 00 00 
   0.477634 2  0CFF1B31x    Rx   d 8 27 24 38 00 40 DE 00 00 
   0.480870 2  0CF00300x    Rx   d 8 FF FE 00 FF FF FF FF FF 
   0.481165 2  0CEFFF00x    Rx   d 8 64 06 00 7D FF FF 00 00 
   0.481173 1  0CF00300x    Rx   d 8 FF FE 00 FF FF FF FF FF 
   0.481452 2  0CF00400x    Rx   d 8 FE FF 7D 00 00 FF F0 FF 
   0.481460 1  0CEFFF00x    Rx   d 8 64 06 00 7D FF FF 00 00 
   0.481738 2  18EFFF00x    Rx   d 8 64 10 01 01 40 03 00 7D 
   0.481755 1  0CF00400x    Rx   d 8 FE FF 7D 00 00 FF F0 FF 
   0.482025 2  08FEF15Bx    Rx   d 8 FF 00 00 CF FF FF FF FF 
   0.482041 1  08FEF15Bx    Rx   d 8 FF 00 00 CF FF FF FF FF 
   0.482312 2  18FEF600x    Rx   d 8 FF 00 43 FF 00 FF FF FF 
   0.482328 1  18EFFF00x    Rx   d 8 64 10 01 01 40 03 00 7D 
   0.482623 1  08FFFA5Bx    Rx   d 8 00 21 FF FE FF FE FF FF 
   0.482910 1  18FEF600x    Rx   d 8 FF 00 43 FF 00 FF FF FF 
   0.484646 1  0CEFFFEBx    Rx   d 8 F2 25 00 FF FF FF FF FF 
   0.487211 1  18FFFF31x    Rx   d 8 87 FF 00 FF FF FF FF FF 
   0.487686 1  18FFF426x    Rx   d 8 29 FF 00 00 00 FF FF FF 
   0.490946 2  0CF00400x    Rx   d 8 FE FF 7D 00 00 FF F0 FF 
   0.491241 1  0CF00400x    Rx   d 8 FE FF 7D 00 00 FF F0 FF 
   0.491741 2  08EFFF03x    Rx   d 8 64 61 C1 FF DF 0F FF FF 
   0.491962 1  0CF0045Bx    Rx   d 8 FE FF 7D 00 00 FF F0 FF 
   0.492019 2  0CF0045Bx    Rx   d 8 FE FF 7D 00 00 FF F0 FF 
   0.492249 1  18EFFF31x    Rx   d 8 F4 19 00 FF FF FF FF FF 
   0.492544 1  1CFFF831x    Rx   d 8 85 00 00 FF FF FF FF FC 
   0.492568 2  18FFF413x    Rx   d 8 95 BF 7E FF FF FF FF FF 
   0.493969 2  04EF0006x    Rx   d 8 64 15 1D F3 00 00 50 14 
   0.494370 1  08FFFB26x    Rx   d 8 F9 01 00 00 FF FF FF FF 
   0.494673 2  08FFFB26x    Rx   d 8 F9 01 00 00 FF FF FF FF 
   0.494829 1  18FE47EBx    Rx   d 8 FF FF FF FF FF FF FF FF 
   0.499744 1  0CFF18EBx    Rx   d 8 C0 11 00 06 40 07 04 FF 
   0.500449 1  14FFFEEAx    Rx   d 8 47 13 03 00 00 9B 82 FF 
   0.500875 2  0CF00300x    Rx   d 8 FF FE 00 FF FF FF FF FF 
   0.501170 2  0CEFFF00x    Rx   d 8 64 06 00 7D FF FF 00 00 
   0.501178 1  0CF00300x    Rx   d 8 FF FE 00 FF FF FF FF FF 
   0.501456 2  0CF00400x    Rx   d 8 FE FF 7D 00 00 FF F0 FF 
   0.501473 1  0CEFFF00x    Rx   d 8 64 06 00 7D FF FF 00 00 
   0.501743 2  1CEFFA03x    Rx   d 8 AD 1C 00 00 00 00 00 00 
   0.501760 1  0CF00400x    Rx   d 8 FE FF 7D 00 00 FF F0 FF 
   0.502030 2  18EFFFF2x    Rx   d 8 64 58 FC F4 80 FF FF FE 
   0.502046 1  18EFFF31x    Rx   d 8 F1 07 CC CC 00 00 00 00 
   0.502317 2  1CEFFA03x    Rx   d 8 AD 1D 03 00 00 00 00 00 
   0.502325 1  18EFFF31x    Rx   d 8 F0 02 CC 00 30 F0 FF FF 
   0.502603 2  1CEFFA03x    Rx   d 8 AD 1E 00 10 00 00 00 00 
   0.502611 1  1CEFFA03x    Rx   d 8 AD 1C 00 00 00 00 00 00 
   0.502890 2  1CEFFA03x    Rx   d 8 AD 1F 10 00 00 00 00 00 
   0.502906 1  1CEFFA03x    Rx   d 8 AD 1D 03 00 00 00 00 00 
   0.503177 2  1CEFFA03x    Rx   d 8 AD 20 00 00 00 00 FF FF 
   0.503193 1  1CEFFA03x    Rx   d 8 AD 1E 00 10 00 00 00 00 
   0.503463 2  1CEFFA03x    Rx   d 8 AD 21 FF 00 00 00 00 00 
   0.503480 1  1CEFFA03x    Rx   d 8 AD 1F 10 00 00 00 00 00 
   0.503750 2  1CEFFA03x    Rx   d 8 AD 22 00 00 00 00 00 00 
   0.503775 1  1CEFFA03x    Rx   d 8 AD 20 00 00 00 00 FF FF 
   0.504070 1  1CEFFA03x    Rx   d 8 AD 21 FF 00 00 00 00 00 
   0.504356 1  08FFFBEAx    Rx   d 8 FB 02 12 00 FE FF FF FF 
   0.504651 1  1CEFFA03x    Rx   d 8 AD 22 00 00 00 00 00 00 
   0.504938 1  08EFFFEBx    Rx   d 8 64 48 FF FF FF FC FF FF 
   0.505282 1  18FFF426x    Rx   d 8 30 FF 00 00 00 00 F0 FF 
   0.507142 1  0CFFF331x    Rx   d 8 31 FF FE FF FF FF FF F8 
   0.507437 2  0CFFF331x    Rx   d 8 31 FF FE FF FF FF FF F8 
   0.510345 1  1CEFFAEAx    Rx   d 8 AD 01 00 40 80 00 00 00 
   0.510623 1  1CEFFAEAx    Rx   d 8 AD 02 FF FF 80 00 C8 64 
   0.510902 1  1CEFFAEAx    Rx   d 8 AD 03 00 21 34 36 46 66 
   0.510935 2  0CF00400x    Rx   d 8 FE FF 7D 00 00 FF F0 FF 
   0.511172 1  1CEFFAEAx    Rx   d 8 AD 04 79 A6 00 1C 74 86 
   0.511467 1  0CF00400x    Rx   d 8 FE FF 7D 00 00 FF F0 FF 
   0.511737 1  1CEFFAEAx    Rx   d 8 AD 05 39 59 8C A8 04 00 
   0.511934 2  0CF0045Bx    Rx   d 8 FE FF 7D 00 00 FF F0 FF 
   0.512024 1  0CF0045Bx    Rx   d 8 FE FF 7D 00 00 FF F0 FF 
   0.512229 2  0CFFF606x    Rx   d 8 FF FF FF FF FF FF FF FF 
   0.512319 1  18EFFF06x    Rx   d 8 F8 20 F0 FF FF FF FF FF 
   0.512524 2  18EFFF06x    Rx   d 8 F8 20 F0 FF FF FF FF FF 
   0.512598 1  1CEFFAEAx    Rx   d 8 AD 06 80 30 4F 4B 00 00 
   0.512884 1  1CEFFAEAx    Rx   d 8 AD 07 00 00 00 00 00 00 
   0.514023 2  04EF0006x    Rx   d 8 64 15 1E F3 00 00 50 14 
   0.517136 1  0CFFFA31x    Rx   d 8 00 2F 22 FF FF FF FF FF 
   0.517365 2  18EFFA13x    Rx   d 8 AD 12 16 23 16 23 00 00 
   0.519290 1  1CEBFFEBx    Rx   d 8 01 01 FF 80 E2 ED 02 AA 
   0.519577 2  1CEBFFEBx    Rx   d 8 01 01 FF 80 E2 ED 02 AA 
   0.520904 2  0CF00300x    Rx   d 8 FF FE 00 FF FF FF FF FF 
   0.521191 2  0CEFFF00x    Rx   d 8 64 06 00 7D FF FF 00 00 
   0.521199 1  0CF00300x    Rx   d 8 FF FE 00 FF FF FF FF FF 
   0.521478 2  0CF00400x    Rx   d 8 FE FF 7D 00 00 FF F0 FF 
   0.521494 1  0CEFFF00x    Rx   d 8 64 06 00 7D FF FF 00 00 
   0.521764 2  1CFFFA00x    Rx   d 8 00 50 27 0E BF 5E FF FF 
   0.521789 1  0CF00400x    Rx   d 8 FE FF 7D 00 00 FF F0 FF 
   0.522059 2  08FFFA03x    Rx   d 8 00 23 DF FF FF FF FF FF 
   0.522076 1  08EFFF5Bx    Rx   d 8 64 57 2F FF FF 00 00 FF 
   0.522362 1  10FF145Bx    Rx   d 8 FF FF FF FF FF FF FF FF 
   0.524763 1  18EFFFEBx    Rx   d 8 64 A3 FF FF FF FF FF FF 
   0.527138 1  0CFF1B31x    Rx   d 8 27 24 38 00 50 64 00 00 
   0.527425 2  0CFF1B31x    Rx   d 8 27 24 38 00 50 64 00 00 
   0.527425 1  18FFFF31x    Rx   d 8 09 FF FF FF FF F3 FF FF 
   0.527720 1  08FFF831x    Rx   d 8 16 FF FF FF FF FF FF FF 
   0.528015 1  08FFFB31x    Rx   d 8 00 C2 FF FF FF FF FF FF 
   0.530890 2  0CF00400x    Rx   d 8 FE FF 7D 00 00 FF F0 FF 
   0.531185 1  0CF00400x    Rx   d 8 FE FF 7D 00 00 FF F0 FF 
   0.531742 2  08EFFF03x    Rx   d 8 64 61 C1 FF DF 0F FF FF 
   0.531947 1  0CF0045Bx    Rx   d 8 FE FF 7D 00 00 FF F0 FF 
   0.532029 2  0CF0045Bx    Rx   d 8 FE FF 7D 00 00 FF F0 FF 
   0.532586 2  0CACFF13x    Rx   d 8 94 7D 14 1F C2 FF FF FF 
   0.532865 2  18FFF413x    Rx   d 8 63 43 01 00 10 E1 FF FF 
   0.532873 1  0CACFF13x    Rx   d 8 94 7D 14 1F C2 FF FF FF 
   0.533159 1  18FFF413x    Rx   d 8 63 43 01 00 10 E1 FF FF 
   0.533995 2  04EF0006x    Rx   d 8 64 15 1F F3 00 00 50 14 
   0.534519 1  18E7265Bx    Rx   d 8 FF FF FF FF FF FF FF FF 
   0.534937 2  18FECA5Bx    Rx   d 8 00 FF 00 00 00 00 FF FF 
   0.534937 1  18FECA5Bx    Rx   d 8 00 FF 00 00 00 00 FF FF 
   0.539869 1  0CFF18EBx    Rx   d 8 C0 29 00 03 40 07 05 FF 
   0.540475 1  18E726EBx    Rx   d 8 FF FF FF FF FF FF FF FF 
   0.540901 2  0CF00300x    Rx   d 8 FF FE 00 FF FF FF FF FF 
   0.541196 2  0CEFFF00x    Rx   d 8 64 06 00 7D FF FF 00 00 
   0.541204 1  0CF00300x    Rx   d 8 FF FE 00 FF FF FF FF FF 
   0.541483 2  0CF00400x    Rx   d 8 FE FF 7D 00 00 FF F0 FF 
   0.541499 1  0CEFFF00x    Rx   d 8 64 06 00 7D FF FF 00 00 
   0.541777 2  18FEF200x    Rx   d 8 00 00 FF FF FF FF FF FF 
   0.541786 1  0CF00400x    Rx   d 8 FE FF 7D 00 00 FF F0 FF 
   0.542064 2  08FEF103x    Rx   d 8 FF 00 00 CF FF FF FF FF 
   0.542105 1  18FEF200x    Rx   d 8 00 00 FF FF FF FF FF FF 
   0.542343 2  18EFFFF2x    Rx   d 8 64 58 FC F4 80 FF FF FE 
   0.542392 1  08FEF103x    Rx   d 8 FF 00 00 CF FF FF FF FF 
   0.542638 2  18FFF413x    Rx   d 8 95 BF 7E FF FF FF FF FF 
   0.542908 2  18FFF413x    Rx   d 8 5F 86 64 C1 89 63 1F FF 
   0.543195 1  18FFF413x    Rx   d 8 5F 86 64 C1 89 63 1F FF 
   0.543571 1  18FFFA26x    Rx   d 8 00 31 00 FD FF FF FF FF 
   0.545480 1  18FFFA26x    Rx   d 8 00 24 00 FF FF FF FF FF 
   0.547151 1  0CFFF331x    Rx   d 8 31 FF FE FF FF FF FF F8 
   0.547446 2  0CFFF331x    Rx   d 8 31 FF FE FF FF FF FF F8 
   0.548077 1  1CE72631x    Rx   d 8 FF FF FF FF FF FF FF FF 
   0.550944 2  0CF00400x    Rx   d 8 FE FF 7D 00 00 FF F0 FF 
   0.551239 1  0CF00400x    Rx   d 8 FE FF 7D 00 00 FF F0 FF 
   0.551952 2  0CF0045Bx    Rx   d 8 FE FF 7D 00 00 FF F0 FF 
   0.551960 1  0CF0045Bx    Rx   d 8 FE FF 7D 00 00 FF F0 FF 
   0.552247 2  18EFFF06x    Rx   d 8 F8 20 F0 FF FF FF FF FF 
   0.552255 1  18EFFF06x    Rx   d 8 F8 20 F0 FF FF FF FF FF 
   0.553959 2  04EF0006x    Rx   d 8 64 15 10 F3 00 00 50 14 
   0.554737 1  10FFFDEBx    Rx   d 8 00 05 FF FF 00 00 0F FF 
   0.555032 1  10FFFDEBx    Rx   d 8 00 06 FF FF FF FF FF FF 
   0.557350 2  18EFFA13x    Rx   d 8 AD 12 16 23 16 23 00 00 
   0.560898 2  0CF00300x    Rx   d 8 FF FE 00 FF FF FF FF FF 
   0.561192 2  0CEFFF00x    Rx   d 8 64 06 00 7D FF FF 00 00 
   0.561201 1  0CF00300x    Rx   d 8 FF FE 00 FF FF FF FF FF 
   0.561479 2  0CF00400x    Rx   d 8 FE FF 7D 00 00 FF F0 FF 
   0.561496 1  0CEFFF00x    Rx   d 8 64 06 00 7D FF FF 00 00 
   0.561766 2  18EF0600x    Rx   d 8 64 0E 31 00 FF FF FF FF 
   0.561782 1  0CF00400x    Rx   d 8 FE FF 7D 00 00 FF F0 FF 
   0.562053 2  08FFF4F2x    Rx   d 8 5E 04 FC 00 00 67 F0 FF 
   0.562257 1  14FFFB26x    Rx   d 8 00 9A FF FF CC FF FF FF 
   0.562339 2  18EFFF00x    Rx   d 8 F8 21 40 00 00 00 00 00 
   0.562626 2  18FEF500x    Rx   d 8 C5 FF FF 6E 26 4A FF FF 
   0.562642 1  18EFFF00x    Rx   d 8 F8 21 40 00 00 00 00 00 
   0.562929 1  18FEF500x    Rx   d 8 C5 FF FF 6E 26 4A FF FF 
   0.563339 1  18FFFE31x    Rx   d 8 FD FF FF FF FF FF FF FF 
   0.564649 1  08EFFFEBx    Rx   d 8 F8 0B 00 00 FE FF F0 00 
   0.564953 2  08EFFFEBx    Rx   d 8 F8 0B 00 00 FE FF F0 00 
   0.570425 1  08FFFAEAx    Rx   d 8 00 32 F2 00 00 FF FF FF 
   0.570933 2  0CF00400x    Rx   d 8 FE FF 7D 00 00 FF F0 FF 
   0.571219 2  0CFD9200x    Rx   d 8 F0 FF FF FF FF FF FF FF 
   0.571228 1  0CF00400x    Rx   d 8 FE FF 7D 00 00 FF F0 FF 
   0.571916 2  08EFFF03x    Rx   d 8 64 61 C0 FF DF 0F FF FF 
   0.571965 1  0CF0045Bx    Rx   d 8 FE FF 7D 00 00 FF F0 FF 
   0.572203 2  0CF0045Bx    Rx   d 8 FE FF 7D 00 00 FF F0 FF 
   0.572260 1  0CFFEC5Bx    Rx   d 8 FF FF FF FF FF F0 FF FF 
   0.572547 1  08FFFA5Bx    Rx   d 8 00 22 FE FF FE FE FE FF 
   0.573988 2  04EF0006x    Rx   d 8 64 15 11 F3 00 00 50 14 
   0.574373 1  1CEBFFEBx    Rx   d 8 02 FF E3 02 FF FF FF FF 
   0.574668 1  08FFFB26x    Rx   d 8 F9 01 00 00 FF FF FF FF 
   0.574668 2  1CEBFFEBx    Rx   d 8 02 FF E3 02 FF FF FF FF 
   0.574963 2  08FFFB26x    Rx   d 8 F9 01 00 00 FF FF FF FF 
   0.577134 1  0CFF1B31x    Rx   d 8 27 24 38 00 60 3D 00 00 
   0.577421 2  0CFF1B31x    Rx   d 8 27 24 38 00 60 3D 00 00 
   0.579936 1  0CFF18EBx    Rx   d 8 C0 03 00 04 40 07 06 FF 
   0.580845 2  0CF00300x    Rx   d 8 FF FE 00 FF FF FF FF FF 
   0.581140 2  0CEFFF00x    Rx   d 8 64 06 00 7D FF FF 00 00 
   0.581148 1  0CF00300x    Rx   d 8 FF FE 00 FF FF FF FF FF 
   0.581427 2  0CF00400x    Rx   d 8 FE FF 7D 00 00 FF F0 FF 
   0.581443 1  0CEFFF00x    Rx   d 8 64 06 00 7D FF FF 00 00 
   0.581713 2  18EFFF00x    Rx   d 8 64 10 01 01 40 03 00 7D 
   0.581730 1  0CF00400x    Rx   d 8 FE FF 7D 00 00 FF F0 FF 
   0.581992 2  18EFFFF2x    Rx   d 8 64 58 FC F4 80 FF FF FE 
   0.582017 1  18EFFF00x    Rx   d 8 64 10 01 01 40 03 00 7D 
   0.582279 2  08FEF15Bx    Rx   d 8 FF 00 00 CF FF FF FF FF 
   0.582303 1  08FEF15Bx    Rx   d 8 FF 00 00 CF FF FF FF FF 
   0.582606 1  08FFFA5Bx    Rx   d 8 00 21 FF FE FF FE FF FF 
   0.583524 1  18E726EAx    Rx   d 8 FF FF FF FF FF FF FF FF 
   0.584130 1  08FFFBEAx    Rx   d 8 FB 02 12 00 FE FF FF FF 
   0.587145 1  0CFFF331x    Rx   d 8 31 FF FE FF FF FF FF F8 
   0.587431 1  18FFFF31x    Rx   d 8 87 FF 00 FF FF FF FF FF 
   0.587440 2  0CFFF331x    Rx   d 8 31 FF FE FF FF FF FF F8 
   0.590495 1  14FFFFEAx    Rx   d 8 16 FF 00 00 FF FE D7 07 
   0.590938 2  0CF00400x    Rx   d 8 FE FF 7D 00 00 FF F0 FF 
   0.591233 1  0CF00400x    Rx   d 8 FE FF 7D 00 00 FF F0 FF 
   0.591945 2  0CF0045Bx    Rx   d 8 FE FF 7D 00 00 FF F0 FF 
   0.591953 1  0CF0045Bx    Rx   d 8 FE FF 7D 00 00 FF F0 FF 
   0.592240 2  0CFFF606x    Rx   d 8 FF FF FF FF FF FF FF FF 
   0.592248 1  18EFFF06x    Rx   d 8 F8 20 F0 FF FF FF FF FF 
   0.592535 2  18EFFF06x    Rx   d 8 F8 20 F0 FF FF FF FF FF 
   0.592535 1  18EFFF31x    Rx   d 8 F4 19 00 FF FF FF FF FF 
   0.592822 2  18FFF413x    Rx   d 8 95 BF 7E FF FF FF FF FF 
   0.592830 1  1CFFF831x    Rx   d 8 85 00 00 FF FF FF FF FC 
   0.594001 1  0CFFFA26x    Rx   d 8 01 45 FF FF FF FF FF FF 
   0.594042 2  04EF0006x    Rx   d 8 64 15 12 F3 00 00 50 14 
   0.597155 1  0CFFF831x    Rx   d 8 28 00 FF FF FF FF FF FF 
   0.597352 2  18EFFA13x    Rx   d 8 AD 12 16 23 16 23 00 00 
   0.597630 2  18FFF8C5x    Rx   d 8 9B 00 7D 00 64 80 F0 00 
   0.600907 2  0CF00300x    Rx   d 8 FF FE 00 FF FF FF FF FF 
   0.601194 2  0CEFFF00x    Rx   d 8 64 06 00 7D FF FF 00 00 
   0.601210 1  0CF00300x    Rx   d 8 FF FE 00 FF FF FF FF FF 
   0.601481 2  0CF00400x    Rx   d 8 FE FF 7D 00 00 FF F0 FF 
   0.601497 1  0CEFFF00x    Rx   d 8 64 06 00 7D FF FF 00 00 
   0.601759 2  18FE6900x    Rx   d 8 8A 25 42 25 FF FF C4 25 
   0.601792 1  0CF00400x    Rx   d 8 FE FF 7D 00 00 FF F0 FF 
   0.602046 2  1CEFFA03x    Rx   d 8 AD 1C 00 00 00 00 00 00 
   0.602071 1  18EFFF31x    Rx   d 8 F1 07 CC CC 00 00 00 00 
   0.602333 2  1CEFFA03x    Rx   d 8 AD 1D 03 00 00 00 00 00 
   0.602349 1  18EFFF31x    Rx   d 8 F0 02 CC 00 30 F0 FF FF 
   0.602619 2  1CEFFA03x    Rx   d 8 AD 1E 00 10 00 00 00 00 
   0.602628 1  18FE6900x    Rx   d 8 8A 25 42 25 FF FF C4 25 
   0.602914 2  1CEFFA03x    Rx   d 8 AD 1F 10 00 00 00 00 00 
   0.602923 1  18FFFB5Bx    Rx   d 8 00 81 F0 FF FF FF FF FF 
   0.603201 2  1CEFFA03x    Rx   d 8 AD 20 00 00 00 00 FF FF 
   0.603209 1  1CEFFA03x    Rx   d 8 AD 1C 00 00 00 00 00 00 
   0.603488 2  1CEFFA03x    Rx   d 8 AD 21 FF 00 00 00 00 00 
   0.603496 1  1CEFFA03x    Rx   d 8 AD 1D 03 00 00 00 00 00 
   0.603774 2  1CEFFA03x    Rx   d 8 AD 22 00 00 00 00 00 00 
   0.603791 1  1CEFFA03x    Rx   d 8 AD 1E 00 10 00 00 00 00 
   0.604086 1  1CEFFA03x    Rx   d 8 AD 1F 10 00 00 00 00 00 
   0.604372 1  1CEFFA03x    Rx   d 8 AD 20 00 00 00 00 FF FF 
   0.604667 1  1CEFFA03x    Rx   d 8 AD 21 FF 00 00 00 00 00 
   0.604954 1  08EFFFEBx    Rx   d 8 64 48 FF FF FF FC FF FF 
   0.605241 1  1CEFFA03x    Rx   d 8 AD 22 00 00 00 00 00 00 
   0.610353 1  1CEFFAEAx    Rx   d 8 AD 01 00 40 80 00 00 00 
   0.610631 1  1CEFFAEAx    Rx   d 8 AD 02 FF FF 80 00 C8 64 
   0.610902 1  1CEFFAEAx    Rx   d 8 AD 03 00 21 34 36 46 66 
   0.610934 2  0CF00400x    Rx   d 8 FE FF 7D 00 00 FF F0 FF 
   0.611229 1  0CF00400x    Rx   d 8 FE FF 7D 00 00 FF F0 FF 
   0.611500 1  1CEFFAEAx    Rx   d 8 AD 04 79 A6 00 1C 74 86 
   0.611737 2  08EFFF03x    Rx   d 8 64 61 C0 FF DF 0F FF FF 
   0.611778 1  1CEFFAEAx    Rx   d 8 AD 05 39 59 8C A8 04 00 
   0.612024 2  0CF0045Bx    Rx   d 8 FE FF 7D 00 00 FF F0 FF 
   0.612065 1  0CF0045Bx    Rx   d 8 FE FF 7D 00 00 FF F0 FF 
   0.612343 1  1CEFFAEAx    Rx   d 8 AD 06 80 30 4F 4B 00 00 
   0.612450 2  18FECA03x    Rx   d 8 00 FF 00 00 00 00 FF FF 
   0.612630 1  1CEFFAEAx    Rx   d 8 AD 07 00 00 00 00 00 00 
   0.612917 1  18FECA03x    Rx   d 8 00 FF 00 00 00 00 FF FF 
   0.613965 2  04EF0006x    Rx   d 8 64 15 13 F3 00 00 50 14 
   0.615825 2  1CFFFA5Bx    Rx   d 8 00 2D FA 4C F9 06 00 00 
   0.615825 1  1CFFFA5Bx    Rx   d 8 00 2D FA 4C F9 06 00 00 
   0.616112 2  1CFFFA5Bx    Rx   d 8 00 2D FB 0A FF FF FF FF 
   0.616120 1  1CFFFA5Bx    Rx   d 8 00 2D FB 0A FF FF FF FF 
   0.619732 1  0CFF18EBx    Rx   d 8 C0 0D 00 07 40 07 07 FF 
   0.620929 2  0CF00300x    Rx   d 8 FF FE 00 FF FF FF FF FF 
   0.621215 2  0CEFFF00x    Rx   d 8 64 06 00 7D FF FF 00 00 
   0.621223 1  0CF00300x    Rx   d 8 FF FE 00 FF FF FF FF FF 
   0.621502 2  0CF00400x    Rx   d 8 FE FF 7D 00 00 FF F0 FF 
   0.621518 1  0CEFFF00x    Rx   d 8 64 06 00 7D FF FF 00 00 
   0.621797 2  08FFFA03x    Rx   d 8 00 23 DF FF FF FF FF FF 
   0.621813 1  0CF00400x    Rx   d 8 FE FF 7D 00 00 FF F0 FF 
   0.622084 2  18EFFFF2x    Rx   d 8 64 58 FC F4 80 FF FF FE 
   0.622092 1  08EFFF5Bx    Rx   d 8 64 57 2F FF FF 00 00 FF 
   0.622362 2  1CFFFA00x    Rx   d 8 00 50 27 0E BF 5E FF FF 
   0.622387 1  10FF145Bx    Rx   d 8 FF FF FF FF FF FF FF FF 
   0.622682 1  1CFFFA5Bx    Rx   d 8 00 86 FF FF FF FF FF FF 
   0.627146 1  0CFFF331x    Rx   d 8 31 FF FE FF FF FF FF F8 
   0.627425 1  0CFF1B31x    Rx   d 8 27 24 38 00 70 87 00 00 
   0.627441 2  0CFFF331x    Rx   d 8 31 FF FE FF FF FF FF F8 
   0.627712 1  08FFFB31x    Rx   d 8 00 C2 FF FF FF FF FF FF 
   0.627720 2  0CFF1B31x    Rx   d 8 27 24 38 00 70 87 00 00 
   0.628629 1  18FEF326x    Rx   d 8 C3 A7 EA 95 A5 2E 49 47 
   0.628924 1  0CFEE826x    Rx   d 8 74 28 00 00 76 65 D8 53 
   0.629202 2  0CFEE826x    Rx   d 8 74 28 00 00 76 65 D8 53 
   0.629235 1  0CFFFF26x    Rx   d 8 51 03 02 1A 0A 06 08 04 
   0.629538 1  18FEE826x    Rx   d 8 74 28 00 00 76 65 D8 53 
   0.629817 2  18FEE826x    Rx   d 8 74 28 00 00 76 65 D8 53 
   0.629833 1  18FFFF26x    Rx   d 8 53 0D F4 5A 10 55 41 54 
   0.630980 2  0CF00400x    Rx   d 8 FE FF 7D 00 00 FF F0 FF 
   0.631267 2  18FEDF00x    Rx   d 8 7D A0 28 FF FF FF FF FF 
   0.631275 1  0CF00400x    Rx   d 8 FE FF 7D 00 00 FF F0 FF 
   0.631570 1  18FEDF00x    Rx   d 8 7D A0 28 FF FF FF FF FF 
   0.631955 2  0CF0045Bx    Rx   d 8 FE FF 7D 00 00 FF F0 FF 
   0.631963 1  0CF0045Bx    Rx   d 8 FE FF 7D 00 00 FF F0 FF 
   0.632250 2  18EFFF06x    Rx   d 8 F8 20 F0 FF FF FF FF FF 
   0.632258 1  18EFFF06x    Rx   d 8 F8 20 F0 FF FF FF FF FF 
   0.632586 2  0CACFF13x    Rx   d 8 94 7D 14 1F C2 FF FF FF 
   0.632872 2  18FFF413x    Rx   d 8 63 43 01 00 10 E1 FF FF 
   0.632881 1  0CACFF13x    Rx   d 8 94 7D 14 1F C2 FF FF FF 
   0.633167 1  18FFF413x    Rx   d 8 63 43 01 00 10 E1 FF FF 
   0.633446 1  08FFFF26x    Rx   d 8 E1 DF 97 64 FE 63 FF 28 
   0.633733 2  08FFFF26x    Rx   d 8 E1 DF 97 64 FE 63 FF 28 
   0.634036 2  04EF0006x    Rx   d 8 64 15 14 F3 00 00 50 14 
   0.637108 1  18EA00FBx    Rx   d 3 E9 FE 00                
   0.637353 2  18EFFA13x    Rx   d 8 AD 12 16 23 16 23 00 00 
   0.637378 1  18EA00FBx    Rx   d 3 BD FC 00                
   0.637550 2  18EA00FBx    Rx   d 3 E9 FE 00                
   0.637747 2  18EA00FBx    Rx   d 3 BD FC 00                
   0.638763 1  18FFFA26x    Rx   d 8 00 31 00 FD FF FF FF FF 
   0.639082 1  0CADFF26x    Rx   d 8 FF FF FC FF FF FF FF FF 
   0.639377 2  0CADFF26x    Rx   d 8 FF FF FC FF FF FF FF FF 
   0.639377 1  18FFF426x    Rx   d 8 64 2A 41 26 00 43 81 2F 
   0.639655 2  18FFF426x    Rx   d 8 64 2A 41 26 00 43 81 2F 
   0.641024 2  0CF00300x    Rx   d 8 FF FE 00 FF FF FF FF FF 
   0.641318 2  0CEFFF00x    Rx   d 8 64 06 00 7D FF FF 00 00 
   0.641327 1  0CF00300x    Rx   d 8 FF FE 00 FF FF FF FF FF 
   0.641605 2  0CF00400x    Rx   d 8 FE FF 7D 00 00 FF F0 FF 
   0.641622 1  0CEFFF00x    Rx   d 8 64 06 00 7D FF FF 00 00 
   0.641892 2  08FEF103x    Rx   d 8 FF 00 00 CF FF FF FF FF 
   0.641908 1  0CF00400x    Rx   d 8 FE FF 7D 00 00 FF F0 FF 
   0.642179 2  10FD925Bx    Rx   d 8 F0 FF FF FF FF FF FF FF 
   0.642195 1  10FD925Bx    Rx   d 8 F0 FF FF FF FF FF FF FF 
   0.642473 2  18FEF200x    Rx   d 8 00 00 FF FF FF FF FF FF 
   0.642482 1  08FEF103x    Rx   d 8 FF 00 00 CF FF FF FF FF 
   0.642760 2  18FFF413x    Rx   d 8 95 BF 7E FF FF FF FF FF 
   0.642777 1  18FEF200x    Rx   d 8 00 00 FF FF FF FF FF FF 
   0.643039 2  18FFF413x    Rx   d 8 5F 86 64 C1 89 63 2F FF 
   0.643325 1  18FFF413x    Rx   d 8 5F 86 64 C1 89 63 2F FF 
   0.644800 1  18EFFFEBx    Rx   d 8 64 90 00 00 FF FE FF FF 
   0.645095 1  18EFFFEBx    Rx   d 8 64 91 00 00 00 00 00 00 
   0.645914 1  18FFFA26x    Rx   d 8 00 24 00 FF FF FF FF FF 
   0.647364 1  10FFFF31x    Rx   d 8 06 FF FF FF FF FF FF 3F 
   0.650985 2  0CF00400x    Rx   d 8 FE FF 7D 00 00 FF F0 FF 
   0.651280 1  0CF00400x    Rx   d 8 FE FF 7D 00 00 FF F0 FF 
   0.651739 2  08EFFF03x    Rx   d 8 64 61 C1 FF DF 0F FF FF 
   0.651935 1  0CF0045Bx    Rx   d 8 FE FF 7D 00 00 FF F0 FF 
   0.652025 2  0CF0045Bx    Rx   d 8 FE FF 7D 00 00 FF F0 FF 
   0.653959 2  04EF0006x    Rx   d 8 64 15 15 F3 00 00 50 14 
   0.654622 1  08FFFB26x    Rx   d 8 F9 01 00 00 FF FF FF FF 
   0.654925 2  08FFFB26x    Rx   d 8 F9 01 00 00 FF FF FF FF 
   0.656728 1  10FFFE28x    Rx   d 8 A7 50 14 00 00 00 00 00 
   0.657014 1  10FFFE28x    Rx   d 8 A7 50 01 00 FF FF FF FF 
   0.657301 1  10FFFE28x    Rx   d 8 A7 50 03 00 00 00 00 00 
   0.657588 1  10FFFF31x    Rx   d 8 EC FF FF FF FF FD FF FF 
   0.657883 2  10FFFF31x    Rx   d 8 EC FF FF FF FF FD FF FF 
   0.659955 1  0CFF18EBx    Rx   d 8 C0 2C 00 01 40 07 01 FF 
   0.660930 2  0CF00300x    Rx   d 8 FF FE 00 FF FF FF FF FF 
   0.661217 2  0CEFFF00x    Rx   d 8 64 06 00 7D FF FF 00 00 
   0.661233 1  0CF00300x    Rx   d 8 FF FE 00 FF FF FF FF FF 
   0.661512 2  0CF00400x    Rx   d 8 FE FF 7D 00 00 FF F0 FF 
   0.661520 1  0CEFFF00x    Rx   d 8 64 06 00 7D FF FF 00 00 
   0.661798 2  18EF0600x    Rx   d 8 64 0E 3B 00 FF FF FF FF 
   0.661815 1  0CF00400x    Rx   d 8 FE FF 7D 00 00 FF F0 FF 
   0.662077 2  08FFF4F2x    Rx   d 8 5E 04 FC 00 00 67 F0 FF 
   0.662372 2  18EFFF00x    Rx   d 8 F8 21 40 00 00 00 00 00 
   0.662650 2  18EFFFF2x    Rx   d 8 64 58 FC F4 80 FF FF FE 
   0.662675 1  18EFFF00x    Rx   d 8 F8 21 40 00 00 00 00 00 
   0.663617 1  18FFFE31x    Rx   d 8 FD FF FF FF FF FF FF FF 
   0.664010 1  08FFFBEAx    Rx   d 8 FB 02 12 00 FE FF FF FF 
   0.664485 1  1CFFFAEAx    Rx   d 8 00 2D FA 6A 05 00 00 00 
   0.664772 1  08EFFFEBx    Rx   d 8 F8 0B 00 00 FE FF F0 00 
   0.664780 2  1CFFFAEAx    Rx   d 8 00 2D FA 6A 05 00 00 00 
   0.665059 1  1CFFFAEAx    Rx   d 8 00 2D FB 0A FF FF FF FF 
   0.665083 2  08EFFFEBx    Rx   d 8 F8 0B 00 00 FE FF F0 00 
   0.665370 2  1CFFFAEAx    Rx   d 8 00 2D FB 0A FF FF FF FF 
   0.667148 1  0CFFF331x    Rx   d 8 31 FF FE FF FF FF FF F8 
   0.667443 2  0CFFF331x    Rx   d 8 31 FF FE FF FF FF FF F8 
   0.670433 1  08FFFAEAx    Rx   d 8 00 32 F2 00 00 FF FF FF 
   0.670965 2  0CF00400x    Rx   d 8 FE FF 7D 00 00 FF F0 FF 
   0.671260 1  0CF00400x    Rx   d 8 FE FF 7D 00 00 FF F0 FF 
   0.671965 2  0CF0045Bx    Rx   d 8 FE FF 7D 00 00 FF F0 FF 
   0.671973 1  0CF0045Bx    Rx   d 8 FE FF 7D 00 00 FF F0 FF 
   0.672260 2  0CFFF606x    Rx   d 8 FF FF FF FF FF FF FF FF 
   0.672268 1  18EFFF06x    Rx   d 8 F8 20 F0 FF FF FF FF FF 
   0.672555 2  18EFFF06x    Rx   d 8 F8 20 F0 FF FF FF FF FF 
   0.672555 1  0CFFEC5Bx    Rx   d 8 FF FF FF FF FF F0 FF FF 
   0.672841 1  18EFFF5Bx    Rx   d 8 64 A4 F0 FF FF FF FF FF 
   0.673120 1  08FFFA5Bx    Rx   d 8 00 22 FE FF FE FE FE FF 
   0.674062 2  04EF0006x    Rx   d 8 64 15 16 F3 00 00 50 14 
   0.677134 1  0CFF1B31x    Rx   d 8 27 24 38 00 80 2D 00 00 
   0.677347 2  18EFFA13x    Rx   d 8 AD 12 16 23 16 23 00 00 
   0.677634 2  0CFF1B31x    Rx   d 8 27 24 38 00 80 2D 00 00 
   0.680509 1  14FFFEEAx    Rx   d 8 47 14 03 00 00 9B 82 FF 
   0.680886 2  0CF00300x    Rx   d 8 FF FE 00 FF FF FF FF FF 
   0.681181 2  0CEFFF00x    Rx   d 8 64 06 00 7D FF FF 00 00 
   0.681189 1  0CF00300x    Rx   d 8 FF FE 00 FF FF FF FF FF 
   0.681467 2  0CF00400x    Rx   d 8 FE FF 7D 00 00 FF F0 FF 
   0.681476 1  0CEFFF00x    Rx   d 8 64 06 00 7D FF FF 00 00 
   0.681754 2  18EFFF00x    Rx   d 8 64 10 01 01 40 03 00 7D 
   0.681771 1  0CF00400x    Rx   d 8 FE FF 7D 00 00 FF F0 FF 
   0.682041 2  08FEF15Bx    Rx   d 8 FF 00 00 CF FF FF FF FF 
   0.682057 1  08FEF15Bx    Rx   d 8 FF 00 00 CF FF FF FF FF 
   0.682344 1  18EFFF00x    Rx   d 8 64 10 01 01 40 03 00 7D 
   0.682639 1  08FFFA5Bx    Rx   d 8 00 21 FF FE FF FE FF FF 
   0.682917 1  18EFFF5Bx    Rx   d 8 64 54 FF FF FF F4 CF FF 
   0.683393 2  18FEE900x    Rx   d 8 82 0A 00 00 82 0A 00 00 
   0.683687 2  18E8FF00x    Rx   d 8 01 FF FF FF FF BD FC 00 
   0.683696 1  18FEE900x    Rx   d 8 82 0A 00 00 82 0A 00 00 
   0.683982 1  18E8FF00x    Rx   d 8 01 FF FF FF FF BD FC 00 
   0.684777 1  0CEFFFEBx    Rx   d 8 F2 25 00 FF FF FF FF FF 
   0.687218 1  18FFFF31x    Rx   d 8 87 FF 00 FF FF FF FF FF 
   0.687505 1  18FFFA26x    Rx   d 8 00 5A 00 00 00 00 FF FF 
   0.690307 1  18ECFF4Cx    Rx   d 8 20 0E 00 02 FF CA FE 00 
   0.690962 2  0CF00400x    Rx   d 8 FE FF 7D 00 00 FF F0 FF 
   0.691257 1  0CF00400x    Rx   d 8 FE FF 7D 00 00 FF F0 FF 
   0.691838 2  08EFFF03x    Rx   d 8 64 61 C1 FF DF 0F FF FF 
   0.691961 1  0CF0045Bx    Rx   d 8 FE FF 7D 00 00 FF F0 FF 
   0.692117 2  0CF0045Bx    Rx   d 8 FE FF 7D 00 00 FF F0 FF 
   0.692248 1  18EFFF31x    Rx   d 8 F4 19 00 FF FF FF FF FF 
   0.692543 1  1CFFF831x    Rx   d 8 85 00 00 FF FF FF FF FC 
   0.692568 2  18FFF413x    Rx   d 8 95 BF 7E FF FF FF FF FF 
   0.693977 2  04EF0006x    Rx   d 8 64 15 17 F3 00 00 50 14 
   0.695820 2  1CFFFA5Bx    Rx   d 8 00 2D FE 03 FF FF FF FF 
   0.695836 1  1CFFFA5Bx    Rx   d 8 00 2D FE 03 FF FF FF FF 
   0.699719 1  0CFF18EBx    Rx   d 8 C0 37 00 02 40 07 02 FF 
   0.700874 2  0CF00300x    Rx   d 8 FF FE 00 FF FF FF FF FF 
   0.701169 2  0CEFFF00x    Rx   d 8 64 06 00 7D FF FF 00 00 
   0.701177 1  0CF00300x    Rx   d 8 FF FE 00 FF FF FF FF FF 
   0.701456 2  0CF00400x    Rx   d 8 FE FF 7D 00 00 FF F0 FF 
   0.701472 1  0CEFFF00x    Rx   d 8 64 06 00 7D FF FF 00 00 
   0.701743 2  1CEFFA03x    Rx   d 8 AD 1C 00 00 00 00 00 00 
   0.701759 1  0CF00400x    Rx   d 8 FE FF 7D 00 00 FF F0 FF 
   0.702029 2  18EFFFF2x    Rx   d 8 64 58 FC F4 80 FF FF FE 
   0.702046 1  18EFFF31x    Rx   d 8 F1 07 CC CC 00 00 00 00 
   0.702316 2  1CEFFA03x    Rx   d 8 AD 1D 03 00 00 00 00 00 
   0.702324 1  18EFFF31x    Rx   d 8 F0 02 CC 00 30 F0 FF FF 
   0.702603 2  1CEFFA03x    Rx   d 8 AD 1E 00 10 00 00 00 00 
   0.702611 1  1CEFFA03x    Rx   d 8 AD 1C 00 00 00 00 00 00 
   0.702889 2  1CEFFA03x    Rx   d 8 AD 1F 10 00 00 00 00 00 
   0.702898 1  1CFFFAEBx    Rx   d 8 00 2D FA 3A 18 FF 00 00 
   0.703176 2  1CEFFA03x    Rx   d 8 AD 20 00 00 00 00 FF FF 
   0.703184 1  1CEFFA03x    Rx   d 8 AD 1D 03 00 00 00 00 00 
   0.703463 2  1CEFFA03x    Rx   d 8 AD 21 FF 00 00 00 00 00 
   0.703471 1  1CFFFAEBx    Rx   d 8 00 2D FB 0A FF FF FF FF 
   0.703750 2  1CEFFA03x    Rx   d 8 AD 22 00 00 00 00 00 00 
   0.703758 1  1CEFFA03x    Rx   d 8 AD 1E 00 10 00 00 00 00 
   0.704036 2  1CFFFAEBx    Rx   d 8 00 2D FA 3A 18 FF 00 00 
   0.704045 1  1CEFFA03x    Rx   d 8 AD 1F 10 00 00 00 00 00 
   0.704323 2  1CFFFAEBx    Rx   d 8 00 2D FB 0A FF FF FF FF 
   0.704339 1  1CEFFA03x    Rx   d 8 AD 20 00 00 00 00 FF FF 
   0.704626 1  1CEFFA03x    Rx   d 8 AD 21 FF 00 00 00 00 00 
   0.704921 1  1CEFFA03x    Rx   d 8 AD 22 00 00 00 00 00 00 
   0.705200 1  08EFFFEBx    Rx   d 8 64 48 FF FF FF FC FF FF 
   0.707133 1  14FFFA26x    Rx   d 8 07 13 00 00 00 00 00 00 
   0.707420 1  0CFFF331x    Rx   d 8 31 FF FE FF FF FF FF F8 
   0.707706 1  14FFFA26x    Rx   d 8 07 14 00 00 00 00 F6 FF 
   0.707715 2  0CFFF331x    Rx   d 8 31 FF FE FF FF FF FF F8 
   0.707993 1  18FFFB31x    Rx   d 8 F2 26 4F FF FF FF FF FF 
   0.708280 1  14FFFA26x    Rx   d 8 07 15 01 F1 61 00 06 0E 
   0.708296 2  18FFFB31x    Rx   d 8 F2 26 4F FF FF FF FF FF 
   0.708567 1  18FFFB31x    Rx   d 8 00 80 F1 FF FF FF FF FF 
   0.708853 1  14FFFA26x    Rx   d 8 07 16 FE FF FF FF FF FF 
   0.709165 1  18EFFA26x    Rx   d 8 AD 40 20 00 00 00 00 01 
   0.709492 1  18FFFA26x    Rx   d 8 00 64 00 00 00 00 FF FF 
   0.710352 1  1CEFFAEAx    Rx   d 8 AD 01 00 40 80 00 00 00 
   0.710631 1  1CEFFAEAx    Rx   d 8 AD 02 FF FF 80 00 C8 64 
   0.710901 1  1CEFFAEAx    Rx   d 8 AD 03 00 21 34 36 46 66 
   0.710942 2  0CF00400x    Rx   d 8 FE FF 7D 00 00 FF F0 FF 
   0.711180 1  1CEFFAEAx    Rx   d 8 AD 04 79 A6 00 1C 74 86 
   0.711467 1  0CF00400x    Rx   d 8 FE FF 7D 00 00 FF F0 FF 
   0.711745 1  1CEFFAEAx    Rx   d 8 AD 05 39 59 8C A8 04 00 
   0.711933 2  0CF0045Bx    Rx   d 8 FE FF 7D 00 00 FF F0 FF 
   0.712032 1  0CF0045Bx    Rx   d 8 FE FF 7D 00 00 FF F0 FF 
   0.712228 2  18EFFF06x    Rx   d 8 F8 20 F0 FF FF FF FF FF 
   0.712318 1  14FFFA5Bx    Rx   d 8 00 53 04 0C FF FF FF FF 
   0.712613 1  18EFFF06x    Rx   d 8 F8 20 F0 FF FF FF FF FF 
   0.712900 1  18EFFF26x    Rx   d 8 09 00 00 00 00 00 FF FF 
   0.713179 1  1CEFFAEAx    Rx   d 8 AD 06 80 30 4F 4B 00 00 
   0.713465 1  1CEFFAEAx    Rx   d 8 AD 07 00 00 00 00 00 00 
   0.713629 2  18FECA13x    Rx   d 8 00 FF 00 00 00 00 FF FF 
   0.713916 2  18FECAC5x    Rx   d 8 00 FF 00 00 00 00 FF FF 
   0.713924 1  18FECA13x    Rx   d 8 00 FF 00 00 00 00 FF FF 
   0.714194 2  04EF0006x    Rx   d 8 64 15 18 F3 00 00 50 14 
   0.717144 1  0CFFFA31x    Rx   d 8 00 2F 22 FF FF FF FF FF 
   0.717365 2  18EFFA13x    Rx   d 8 AD 12 16 23 16 23 00 00 
   0.720412 1  14FFFFEAx    Rx   d 8 16 FF 00 00 FF FE D7 07 
   0.720912 2  0CF00300x    Rx   d 8 FF FE 00 FF FF FF FF FF 
   0.721207 2  0CEFFF00x    Rx   d 8 64 06 00 7D FF FF 00 00 
   0.721215 1  0CF00300x    Rx   d 8 FF FE 00 FF FF FF FF FF 
   0.721494 2  0CF00400x    Rx   d 8 FE FF 7D 00 00 FF F0 FF 
   0.721510 1  0CEFFF00x    Rx   d 8 64 06 00 7D FF FF 00 00 
   0.721780 2  1CFFFA00x    Rx   d 8 00 50 27 0E BF 5E FF FF 
   0.721797 1  0CF00400x    Rx   d 8 FE FF 7D 00 00 FF F0 FF 
   0.722067 2  08FFFA03x    Rx   d 8 00 23 DF FF FF FF FF FF 
   0.722083 1  08EFFF5Bx    Rx   d 8 64 57 2F FF FF 00 00 FF 
   0.722378 1  10FF145Bx    Rx   d 8 FF FF FF FF FF FF FF FF 
   0.722567 2  18FE47C5x    Rx   d 8 FF FF FF FF FF FF FF FF 
   0.727138 1  0CFF1B31x    Rx   d 8 27 24 38 00 90 97 00 00 
   0.727433 1  18FFFF31x    Rx   d 8 09 FF FF FF FF F3 FF FF 
   0.727433 2  0CFF1B31x    Rx   d 8 27 24 38 00 90 97 00 00 
   0.727719 1  08FFF831x    Rx   d 8 16 FF FF FF FF FF FF FF 
   0.728014 1  08FFFB31x    Rx   d 8 00 C2 FF FF FF FF FF FF 
   0.730947 2  0CF00400x    Rx   d 8 FE FF 7D 00 00 FF F0 FF 
   0.731242 1  0CF00400x    Rx   d 8 FE FF 7D 00 00 FF F0 FF 
   0.731750 2  08EFFF03x    Rx   d 8 64 61 C0 FF DF 0F FF FF 
   0.731955 1  0CF0045Bx    Rx   d 8 FE FF 7D 00 00 FF F0 FF 
   0.732037 2  0CF0045Bx    Rx   d 8 FE FF 7D 00 00 FF F0 FF 
   0.732577 2  0CACFF13x    Rx   d 8 94 7D 14 1F C2 FF FF FF 
   0.732856 2  18FFF413x    Rx   d 8 63 43 00 00 10 E1 FF FF 
   0.732872 1  0CACFF13x    Rx   d 8 94 7D 14 1F C2 FF FF FF 
   0.733151 1  18FFF413x    Rx   d 8 63 43 00 00 10 E1 FF FF 
   0.733970 2  04EF0006x    Rx   d 8 64 15 19 F3 00 00 50 14 
   0.734814 1  08FFFB26x    Rx   d 8 F9 01 00 00 FF FF FF FF 
   0.735117 2  08FFFB26x    Rx   d 8 F9 01 00 00 FF FF FF FF 
   0.739696 1  0CFF18EBx    Rx   d 8 C0 02 00 05 40 07 03 FF 
   0.740941 2  0CF00300x    Rx   d 8 FF FE 00 FF FF FF FF FF 
   0.741220 1  18EBFF4Cx    Rx   d 8 01 00 FF EE E4 E5 7F F3 
   0.741228 2  0CEFFF00x    Rx   d 8 64 06 00 7D FF FF 00 00 
   0.741515 1  0CF00300x    Rx   d 8 FF FE 00 FF FF FF FF FF 
   0.741515 2  0CF00400x    Rx   d 8 FE FF 7D 00 00 FF F0 FF 
   0.741810 1  0CEFFF00x    Rx   d 8 64 06 00 7D FF FF 00 00 
   0.741810 2  08FEF103x    Rx   d 8 FF 00 00 CF FF FF FF FF 
   0.742088 2  18EFFF00x    Rx   d 8 64 23 FE FA 00 FE 40 51 
   0.742113 1  0CF00400x    Rx   d 8 FE FF 7D 00 00 FF F0 FF 
   0.742367 2  18EFFFF2x    Rx   d 8 64 58 FC F4 80 FF FF FE 
   0.742408 1  18EFFFF2x    Rx   d 8 FC 04 FF FE FF FE FF FF 
   0.742662 2  18FEF200x    Rx   d 8 00 00 FF FF FF FF FF FF 
   0.742694 1  08FEF103x    Rx   d 8 FF 00 00 CF FF FF FF FF 
   0.742957 2  18EFFFF2x    Rx   d 8 FC 04 FF FE FF FE FF FF 
   0.742973 1  18EFFF00x    Rx   d 8 64 23 FE FA 00 FE 40 51 
   0.743243 2  18FFF413x    Rx   d 8 95 BF 7E FF FF FF FF FF 
   0.743268 1  18FEF200x    Rx   d 8 00 00 FF FF FF FF FF FF 
   0.743522 2  18FFF413x    Rx   d 8 5F 86 64 C1 89 63 3F FF 
   0.743563 1  18FFFA26x    Rx   d 8 00 31 00 FD FF FF FF FF 
   0.743841 1  18FFF413x    Rx   d 8 5F 86 64 C1 89 63 3F FF 
   0.744235 1  08FFFBEAx    Rx   d 8 FB 02 12 00 FE FF FF FF 
   0.744693 1  1CFFFAEAx    Rx   d 8 00 2D FE 03 FF FF FF FF 
   0.744988 2  1CFFFAEAx    Rx   d 8 00 2D FE 03 FF FF FF FF 
   0.745472 1  18FFFA26x    Rx   d 8 00 24 00 FF FF FF FF FF 
   0.747151 1  0CFFF331x    Rx   d 8 31 FF FE FF FF FF FF F8 
   0.747446 2  0CFFF331x    Rx   d 8 31 FF FE FF FF FF FF F8 
   0.750993 2  0CF00400x    Rx   d 8 FE FF 7D 00 00 FF F0 FF 
   0.751288 1  0CF00400x    Rx   d 8 FE FF 7D 00 00 FF F0 FF 
   0.751935 2  0CF0045Bx    Rx   d 8 FE FF 7D 00 00 FF F0 FF 
   0.751943 1  0CF0045Bx    Rx   d 8 FE FF 7D 00 00 FF F0 FF 
   0.752230 2  0CFFF606x    Rx   d 8 FF FF FF FF FF FF FF FF 
   0.752238 1  18EFFF06x    Rx   d 8 F8 20 F0 FF FF FF FF FF 
   0.752525 2  18EFFF06x    Rx   d 8 F8 20 F0 FF FF FF FF FF 
   0.753975 2  04EF0006x    Rx   d 8 64 15 1A F3 00 00 50 14 
   0.754188 1  18EFFF31x    Rx   d 8 F2 27 00 FF FF FF FF FF 
   0.757350 2  18EFFA13x    Rx   d 8 AD 12 16 23 16 23 00 00 
   0.760913 2  0CF00300x    Rx   d 8 FF FE 00 FF FF FF FF FF 
   0.761208 2  0CEFFF00x    Rx   d 8 64 06 00 7D FF FF 00 00 
   0.761217 1  0CF00300x    Rx   d 8 FF FE 00 FF FF FF FF FF 
   0.761495 2  0CF00400x    Rx   d 8 FE FF 7D 00 00 FF F0 FF 
   0.761511 1  0CEFFF00x    Rx   d 8 64 06 00 7D FF FF 00 00 
   0.761782 2  18EF0600x    Rx   d 8 64 0E 45 00 FF FF FF FF 
   0.761806 1  0CF00400x    Rx   d 8 FE FF 7D 00 00 FF F0 FF 
   0.762068 2  08FFF4F2x    Rx   d 8 5E 04 FC 00 00 67 F0 FF 
   0.762363 2  18EFFF00x    Rx   d 8 F8 21 40 00 00 00 00 00 
   0.762667 1  18EFFF00x    Rx   d 8 F8 21 40 00 00 00 00 00 
   0.763338 1  18FFFE31x    Rx   d 8 FD FF FF FF FF FF FF FF 
   0.764747 1  08EFFFEBx    Rx   d 8 F8 0B 00 00 FE FF F0 00 
   0.765050 2  08EFFFEBx    Rx   d 8 F8 0B 00 00 FE FF F0 00 
   0.770514 1  08FFFAEAx    Rx   d 8 00 32 F2 00 00 FF FF FF 
   0.770965 2  0CF00400x    Rx   d 8 FE FF 7D 00 00 FF F0 FF 
   0.771260 1  0CF00400x    Rx   d 8 FE FF 7D 00 00 FF F0 FF 
   0.771784 2  08EFFF03x    Rx   d 8 64 61 C0 FF DF 0F FF FF 
   0.771956 1  0CF0045Bx    Rx   d 8 FE FF 7D 00 00 FF F0 FF 
   0.772071 2  0CF0045Bx    Rx   d 8 FE FF 7D 00 00 FF F0 FF 
   0.772251 1  0CFFEC5Bx    Rx   d 8 FF FF FF FF FF F0 FF FF 
   0.772538 1  08FFFA5Bx    Rx   d 8 00 22 FE FF FE FE FE FF 
   0.774078 2  04EF0006x    Rx   d 8 64 15 1B F3 00 00 50 14 
   0.775880 2  1CFFFA5Bx    Rx   d 8 00 2D FC 15 00 01 00 00 
   0.775880 1  1CFFFA5Bx    Rx   d 8 00 2D FC 15 00 01 00 00 
   0.777134 1  0CFF1B31x    Rx   d 8 27 24 38 00 A0 CE 00 00 
   0.777420 2  0CFF1B31x    Rx   d 8 27 24 38 00 A0 CE 00 00 
   0.779763 1  0CFF18EBx    Rx   d 8 C0 11 00 06 40 07 04 FF 
   0.780918 2  0CF00300x    Rx   d 8 FF FE 00 FF FF FF FF FF 
   0.781213 2  0CEFFF00x    Rx   d 8 64 06 00 7D FF FF 00 00 
   0.781221 1  0CF00300x    Rx   d 8 FF FE 00 FF FF FF FF FF 
   0.781500 2  0CF00400x    Rx   d 8 FE FF 7D 00 00 FF F0 FF 
   0.781516 1  0CEFFF00x    Rx   d 8 64 06 00 7D FF FF 00 00 
   0.781787 2  18EFFF00x    Rx   d 8 64 10 01 01 40 03 00 7D 
   0.781803 1  0CF00400x    Rx   d 8 FE FF 7D 00 00 FF F0 FF 
   0.782073 2  08FEF15Bx    Rx   d 8 FF 00 00 CF FF FF FF FF 
   0.782090 1  08FEF15Bx    Rx   d 8 FF 00 00 CF FF FF FF FF 
   0.782360 2  18EFFFF2x    Rx   d 8 64 58 FC F4 80 FF FF FE 
   0.782385 1  08FFFBEAx    Rx   d 8 FB 02 21 00 00 FF FF FF 
   0.782639 2  14EFFF5Bx    Rx   d 8 64 53 FF FF 00 01 00 F0 
   0.782680 1  08FFFA5Bx    Rx   d 8 00 21 FF FE FF FE FF FF 
   0.782966 1  08FFFBEAx    Rx   d 8 FB 02 22 00 00 FF FF FF 
   0.783261 1  08FFFBEAx    Rx   d 8 FB 02 23 00 00 FF FF FF 
   0.783548 1  08FFFBEAx    Rx   d 8 FB 02 24 00 00 FF FF FF 
   0.783835 1  08FFFBEAx    Rx   d 8 FB 02 0B 08 00 FF FF FF 
   0.784130 1  08FFFBEAx    Rx   d 8 FB 02 0C 01 00 FF FF FF 
   0.784416 1  08FFFBEAx    Rx   d 8 FB 02 16 00 FE FF FF FF 
   0.784703 1  14EFFF5Bx    Rx   d 8 64 53 FF FF 00 01 00 F0 
   0.784990 1  18EFFF00x    Rx   d 8 64 10 01 01 40 03 00 7D 
   0.785276 1  18FFFB5Bx    Rx   d 8 00 05 7D FF FF FF FF FF 
   0.785571 1  1CFFFAEBx    Rx   d 8 00 2D FE 03 FF FF FF FF 
   0.785866 2  1CFFFAEBx    Rx   d 8 00 2D FE 03 FF FF FF FF 
   0.787144 1  0CFFF331x    Rx   d 8 31 FF FE FF FF FF FF F8 
   0.787431 1  18FFFF31x    Rx   d 8 87 FF 00 FF FF FF FF FF 
   0.787439 2  0CFFF331x    Rx   d 8 31 FF FE FF FF FF FF F8 
   0.790953 2  0CF00400x    Rx   d 8 FE FF 7D 00 00 FF F0 FF 
   0.791240 2  18EFFF00x    Rx   d 8 64 55 3D 3C FF FF FF FF 
   0.791248 1  0CF00400x    Rx   d 8 FE FF 7D 00 00 FF F0 FF 
   0.791535 1  18EFFF00x    Rx   d 8 64 55 3D 3C FF FF FF FF 
   0.791994 2  0CF0045Bx    Rx   d 8 FE FF 7D 00 00 FF F0 FF 
   0.792002 1  0CF0045Bx    Rx   d 8 FE FF 7D 00 00 FF F0 FF 
   0.792289 2  18EFFF06x    Rx   d 8 F8 20 F0 FF FF FF FF FF 
   0.792297 1  18EFFF06x    Rx   d 8 F8 20 F0 FF FF FF FF FF 
   0.792576 1  18EBFF4Cx    Rx   d 8 02 E4 E5 7F F4 E4 E5 7F 
   0.792576 2  18FFF413x    Rx   d 8 95 AF 7E FF FF FF FF FF 
   0.792862 1  18EFFF31x    Rx   d 8 F4 19 00 FF FF FF FF FF 
   0.793157 1  1CFFF831x    Rx   d 8 85 00 00 FF FF FF FF FC 
   0.794058 2  04EF0006x    Rx   d 8 64 15 1C F3 00 00 50 14 
   0.794419 1  0CFFFA26x    Rx   d 8 01 45 FF FF FF FF FF FF 
   0.797155 1  0CFFF831x    Rx   d 8 28 00 FF FF FF FF FF FF 
   0.797351 2  18EFFA13x    Rx   d 8 AD 12 16 23 16 23 00 00 
   0.800948 2  0CF00300x    Rx   d 8 FF FE 00 FF FF FF FF FF 
   0.801234 2  0CEFFF00x    Rx   d 8 64 06 00 7D FF FF 00 00 
   0.801251 1  0CF00300x    Rx   d 8 FF FE 00 FF FF FF FF FF 
   0.801521 2  0CF00400x    Rx   d 8 FE FF 7D 00 00 FF F0 FF 
   0.801538 1  0CEFFF00x    Rx   d 8 64 06 00 7D FF FF 00 00 
   0.801816 2  1CEFFA03x    Rx   d 8 AD 1C 00 00 00 00 00 00 
   0.801832 1  0CF00400x    Rx   d 8 FE FF 7D 00 00 FF F0 FF 
   0.802111 1  18EFFF31x    Rx   d 8 F1 07 CC CC 00 00 00 00 
   0.802160 2  1CEFFA03x    Rx   d 8 AD 1D 03 00 00 00 00 00 
   0.802390 1  18EFFF31x    Rx   d 8 F0 02 CC 00 30 F0 FF FF 
   0.802447 2  1CEFFA03x    Rx   d 8 AD 1E 00 10 00 00 00 00 
   0.802684 1  1CEFFA03x    Rx   d 8 AD 1C 00 00 00 00 00 00 
   0.802742 2  1CEFFA03x    Rx   d 8 AD 1F 10 00 00 00 00 00 
   0.802971 1  1CEFFA03x    Rx   d 8 AD 1D 03 00 00 00 00 00 
   0.803028 2  1CEFFA03x    Rx   d 8 AD 20 00 00 00 00 FF FF 
   0.803258 1  1CEFFA03x    Rx   d 8 AD 1E 00 10 00 00 00 00 
   0.803315 2  1CEFFA03x    Rx   d 8 AD 21 FF 00 00 00 00 00 
   0.803553 1  1CEFFA03x    Rx   d 8 AD 1F 10 00 00 00 00 00 
   0.803602 2  1CEFFA03x    Rx   d 8 AD 22 00 00 00 00 00 00 
   0.803840 1  1CEFFA03x    Rx   d 8 AD 20 00 00 00 00 FF FF 
   0.804134 1  1CEFFA03x    Rx   d 8 AD 21 FF 00 00 00 00 00 
   0.804421 1  18FFF8FBx    Rx   d 8 54 08 05 00 00 00 00 00 
   0.804708 1  1CEFFA03x    Rx   d 8 AD 22 00 00 00 00 00 00 
   0.804724 2  18FFF8FBx    Rx   d 8 54 08 05 00 00 00 00 00 
   0.804995 1  08EFFFEBx    Rx   d 8 64 48 FF FF FF FC FF FF 
   0.807542 2  18FFF8C5x    Rx   d 8 9B 00 7D 00 64 80 F0 00 
   0.810352 1  1CEFFAEAx    Rx   d 8 AD 01 00 40 80 00 00 00 
   0.810639 1  14FFFEEAx    Rx   d 8 47 13 03 00 00 9B 82 FF 
   0.810917 1  1CEFFAEAx    Rx   d 8 AD 02 FF FF 80 00 C8 64 
   0.810999 2  0CF00400x    Rx   d 8 FE FF 7D 00 00 FF F0 FF 
   0.811204 1  14FFFAEAx    Rx   d 8 02 3A C5 FF FF FF FF FF 
   0.811491 1  0CF00400x    Rx   d 8 FE FF 7D 00 00 FF F0 FF 
   0.811761 1  1CEFFAEAx    Rx   d 8 AD 03 00 21 34 36 46 66 
   0.811843 2  08EFFF03x    Rx   d 8 64 61 C1 FF DF 0F FF FF 
   0.812048 1  0CF0045Bx    Rx   d 8 FE FF 7D 00 00 FF F0 FF 
   0.812122 2  0CF0045Bx    Rx   d 8 FE FF 7D 00 00 FF F0 FF 
   0.812335 1  18EFFF5Bx    Rx   d 8 64 A3 FF FF FF FF FF FF 
   0.812605 1  1CEFFAEAx    Rx   d 8 AD 04 79 A6 00 1C 74 86 
   0.812883 1  1CEFFAEAx    Rx   d 8 AD 05 39 59 8C A8 04 00 
   0.813162 1  1CEFFAEAx    Rx   d 8 AD 06 80 30 4F 4B 00 00 
   0.813457 1  1CEFFAEAx    Rx   d 8 AD 07 00 00 00 00 00 00 
   0.813948 1  08FFFB26x    Rx   d 8 F9 01 00 00 FF FF FF FF 
   0.813998 2  04EF0006x    Rx   d 8 64 15 1D F3 00 00 50 14 
   0.814292 2  08FFFB26x    Rx   d 8 F9 01 00 00 FF FF FF FF 
   0.817184 1  08FFFBEBx    Rx   d 8 FB 02 01 00 00 FF FF FF 
   0.817479 1  08FFFBEBx    Rx   d 8 FB 02 02 06 00 FF FF FF 
   0.817774 1  08FFFBEBx    Rx   d 8 FB 02 03 04 00 FF FF FF 
   0.818077 1  08FFFBEBx    Rx   d 8 FB 02 05 00 00 FF FF FF 
   0.818380 1  08FFFBEBx    Rx   d 8 FB 02 07 0A 00 FF FF FF 
   0.818667 1  08FFFBEBx    Rx   d 8 FB 02 08 32 00 FF FF FF 
   0.818962 1  08FFFBEBx    Rx   d 8 FB 02 04 00 FE FF FF FF 
   0.819249 1  08FFFBEBx    Rx   d 8 FB 02 17 00 00 FF FF FF 
   0.819544 1  08FFFBEBx    Rx   d 8 FB 02 09 00 00 FF FF FF 
   0.820436 1  0CFF18EBx    Rx   d 8 C0 29 00 03 40 07 05 FF 
   0.820936 2  0CF00300x    Rx   d 8 FF FE 00 FF FF FF FF FF 
   0.821231 2  0CEFFF00x    Rx   d 8 64 06 00 7D FF FF 00 00 
   0.821239 1  0CF00300x    Rx   d 8 FF FE 00 FF FF FF FF FF 
   0.821518 2  0CF00400x    Rx   d 8 FE FF 7D 00 00 FF F0 FF 
   0.821534 1  0CEFFF00x    Rx   d 8 64 06 00 7D FF FF 00 00 
   0.821805 2  08FFFA03x    Rx   d 8 00 23 DF FF FF FF FF FF 
   0.821829 1  0CF00400x    Rx   d 8 FE FF 7D 00 00 FF F0 FF 
   0.822099 2  0CFD9200x    Rx   d 8 F0 FF FF FF FF FF FF FF 
   0.822116 1  08EFFF5Bx    Rx   d 8 64 57 2F FF FF 00 00 FF 
