date Tue Apr 23 10:28:46.000 AM 2024

// CanSniff Bus Monitor Program v6.12    Copyright (c) 1995-2020 Deere & Co. |
//
// PreTrigger DateStamp: Tue Apr 23 10:28:46.000 AM 2024
// CanSniff created log file in something close to CANalyzer format
// >cansniff -Fc=DMA_Z2215_400TGT_450MS_04232024_001.asc 

base hex  timestamps absolute
no internal events logged
Begin TriggerBlock Tue Apr 23 10:28:46.000 AM 2024
   0.000000 Start of measurement
   0.002498 1  08FFFAEAx    Rx   d 8 00 32 F2 00 00 FF FF FF 
   0.002998 2  18EFFFF2x    Rx   d 8 64 58 FC F4 80 FF C0 24 
   0.003039 1  08FEF15Bx    Rx   d 8 FF 00 00 CF FF FF FF FF 
   0.003293 2  08FEF15Bx    Rx   d 8 FF 00 00 CF FF FF FF FF 
   0.003325 1  08EFFF5Bx    Rx   d 8 64 57 2F FF FF 00 00 FF 
   0.003571 2  08FFF4F2x    Rx   d 8 5E 05 FC 00 00 00 F0 FF 
   0.003629 1  08FFFA5Bx    Rx   d 8 00 21 60 22 B0 22 FF FF 
   0.004284 1  18FFFA26x    Rx   d 8 00 24 00 FF FF FF FF FF 
   0.005505 2  0CF00400x    Rx   d 8 F0 FF 9F 72 25 FF F4 FF 
   0.005791 1  0CF00400x    Rx   d 8 F0 FF 9F 72 25 FF F4 FF 
   0.005791 2  18F00E00x    Rx   d 8 01 FA 00 00 FF FF FF FF 
   0.006086 2  18FEDF00x    Rx   d 8 82 80 25 FF FF FF FF 00 
   0.006111 1  18F00E00x    Rx   d 8 01 FA 00 00 FF FF FF FF 
   0.006397 1  18FEDF00x    Rx   d 8 82 80 25 FF FF FF FF 00 
   0.007290 1  14EFFFEBx    Rx   d 8 64 47 00 00 FB FF FF FF 
   0.009338 1  18FFFF31x    Rx   d 8 06 FF FF FF FF FF FF 3F 
   0.010559 1  0CFF1B31x    Rx   d 8 27 80 C1 00 30 30 00 00 
   0.010854 2  0CFF1B31x    Rx   d 8 27 80 C1 00 30 30 00 00 
   0.012959 2  0CF0045Bx    Rx   d 8 F0 FF 9F 72 25 FF F4 FF 
   0.012967 1  0CF0045Bx    Rx   d 8 F0 FF 9F 72 25 FF F4 FF 
   0.013254 2  18EFFF06x    Rx   d 8 F8 20 F2 FF FF FF FF FF 
   0.013262 1  18EFFF06x    Rx   d 8 F8 20 F2 FF FF FF FF FF 
   0.014303 1  08FFFBEAx    Rx   d 8 FB 02 00 09 01 FF FF FF 
   0.015155 2  04EF0006x    Rx   d 8 64 15 1A F3 AC 2E C0 12 
   0.015433 2  0CEFFF00x    Rx   d 8 64 06 CD 7E 69 86 FF FF 
   0.015720 2  0CF00300x    Rx   d 8 FF FE 23 FF FF FF 69 FF 
   0.015720 1  0CEFFF00x    Rx   d 8 64 06 CD 7E 69 86 FF FF 
   0.015998 2  0CF00400x    Rx   d 8 F0 FF 9F 70 25 FF F4 FF 
   0.016015 1  0CF00300x    Rx   d 8 FF FE 23 FF FF FF 69 FF 
   0.016293 2  18FEF200x    Rx   d 8 28 01 FF FF FF FF FF FF 
   0.016302 1  0CF00400x    Rx   d 8 F0 FF 9F 70 25 FF F4 FF 
   0.016596 1  18FEF200x    Rx   d 8 28 01 FF FF FF FF FF FF 
   0.019292 1  18FFFE31x    Rx   d 8 FD FB FB FB FB FF FF FF 
   0.020520 1  18FEF326x    Rx   d 8 D0 A9 EA 95 53 29 49 47 
   0.020807 1  18FFFB31x    Rx   d 8 F2 26 4F FF FF FF FF FF 
   0.021078 1  08FFFF26x    Rx   d 8 E1 DF E8 63 00 64 FF 22 
   0.021102 2  18FFFB31x    Rx   d 8 F2 26 4F FF FF FF FF FF 
   0.021381 2  08FFFF26x    Rx   d 8 E1 DF E8 63 00 64 FF 22 
   0.021389 1  0CFFFF26x    Rx   d 8 51 03 02 1E 09 05 07 04 
   0.021676 1  0CFEE826x    Rx   d 8 50 5C 03 00 81 64 CE 53 
   0.021954 2  0CFEE826x    Rx   d 8 50 5C 03 00 81 64 CE 53 
   0.021979 1  18FEE826x    Rx   d 8 50 5C 03 00 81 64 CE 53 
   0.022257 2  18FEE826x    Rx   d 8 50 5C 03 00 81 64 CE 53 
   0.022282 1  18FFFF26x    Rx   d 8 53 0D D5 5A 10 55 41 54 
   0.022601 1  1CFFFA26x    Rx   d 8 20 20 E8 63 00 7D FF FF 
   0.022888 2  1CFFFA26x    Rx   d 8 20 20 E8 63 00 7D FF FF 
   0.025280 2  0CF00400x    Rx   d 8 F0 FF 9F 78 25 FF F4 FF 
   0.025567 2  18F00F00x    Rx   d 8 43 F9 00 00 FF FF FF FF 
   0.025575 1  0CF00400x    Rx   d 8 F0 FF 9F 78 25 FF F4 FF 
   0.025862 2  18FFF413x    Rx   d 8 95 FF FF FF FF FF FF FF 
   0.025870 1  18F00F00x    Rx   d 8 43 F9 00 00 FF FF FF FF 
   0.026140 2  1CFFFA00x    Rx   d 8 03 53 9A 33 40 80 46 FF 
   0.026157 1  0CADFF26x    Rx   d 8 FF FF FC FF FF FF FF FF 
   0.026427 2  1CFFFA00x    Rx   d 8 03 52 74 1D 38 3A 00 00 
   0.026443 1  1CFFFA00x    Rx   d 8 03 53 9A 33 40 80 46 FF 
   0.026714 2  0CADFF26x    Rx   d 8 FF FF FC FF FF FF FF FF 
   0.026714 1  18FFF426x    Rx   d 8 64 2A 46 30 00 FA 62 23 
   0.027000 2  1CFFFA00x    Rx   d 8 03 51 41 34 39 35 FF FF 
   0.027000 1  1CFFFA00x    Rx   d 8 03 52 74 1D 38 3A 00 00 
   0.027271 2  18FFF426x    Rx   d 8 64 2A 46 30 00 FA 62 23 
   0.027287 1  1CFFFA00x    Rx   d 8 03 51 41 34 39 35 FF FF 
   0.027566 1  14EFFFEBx    Rx   d 8 64 95 60 0C F0 FF FF FF 
   0.028033 1  18FFFA26x    Rx   d 8 07 00 00 00 39 06 80 00 
   0.028344 1  0CFFFA26x    Rx   d 8 01 45 FF FF FF FF FF FF 
   0.029327 2  08EFFF03x    Rx   d 8 64 61 41 2F 1F 0F FF FF 
   0.030531 2  18EFFA13x    Rx   d 8 AD 12 F0 D8 F0 D8 00 00 
   0.032284 1  14FFFEEAx    Rx   d 8 47 A6 02 00 00 85 7E FF 
   0.032833 1  0CFF18EBx    Rx   d 8 C0 03 00 04 40 07 06 FF 
   0.032989 2  0CF0045Bx    Rx   d 8 F0 FF 9F 78 25 FF F4 FF 
   0.033112 1  0CF0045Bx    Rx   d 8 F0 FF 9F 78 25 FF F4 FF 
   0.033390 1  18E726EAx    Rx   d 8 A8 40 04 FF 09 01 00 00 
   0.033685 1  08FFFB26x    Rx   d 8 F9 01 01 80 00 FF FF FF 
   0.033980 2  08FFFB26x    Rx   d 8 F9 01 01 80 00 FF FF FF 
   0.034635 2  1CFFFA5Bx    Rx   d 8 00 2D 01 03 FF FF FF FF 
   0.034643 1  1CFFFA5Bx    Rx   d 8 00 2D 01 03 FF FF FF FF 
   0.035209 2  04EF0006x    Rx   d 8 64 15 1B F3 A4 2E C0 12 
   0.035495 2  0CEFFF00x    Rx   d 8 64 06 D3 7E 69 86 FF FF 
   0.035782 2  0CF00300x    Rx   d 8 FF FE 22 FF FF FF 69 FF 
   0.035790 1  0CEFFF00x    Rx   d 8 64 06 D3 7E 69 86 FF FF 
   0.036061 2  0CF00400x    Rx   d 8 F0 FF 9F 7E 25 FF F4 FF 
   0.036077 1  0CF00300x    Rx   d 8 FF FE 22 FF FF FF 69 FF 
   0.036347 2  18EF0600x    Rx   d 8 64 0E 46 00 FF FF FF FF 
   0.036364 1  0CF00400x    Rx   d 8 F0 FF 9F 7E 25 FF F4 FF 
   0.036642 2  18EFFF00x    Rx   d 8 F8 21 04 00 00 00 00 00 
   0.036921 2  1CFFFA00x    Rx   d 8 03 54 24 51 A6 14 F8 2B 
   0.036945 1  18EFFF00x    Rx   d 8 F8 21 04 00 00 00 00 00 
   0.037224 1  1CFFFA00x    Rx   d 8 03 54 24 51 A6 14 F8 2B 
   0.037511 1  18FFF8EBx    Rx   d 8 EF FF 01 00 00 F0 FF FF 
   0.040345 1  18FECA4Fx    Rx   d 8 00 FF 00 00 00 00 FF FF 
   0.040632 1  0CFFF331x    Rx   d 8 31 C0 24 FF FF FF FF F8 
   0.040927 2  0CFFF331x    Rx   d 8 31 C0 24 FF FF FF FF F8 
   0.041074 1  1CE6EA26x    Rx   d 8 A8 40 04 00 09 01 00 00 
   0.042991 2  18EFFFF2x    Rx   d 8 64 58 FC F4 80 FF C0 24 
   0.043065 1  10FF145Bx    Rx   d 8 FF FF FF FF FF FF FF FF 
   0.045727 2  0CF00400x    Rx   d 8 F0 FF 9E 80 25 FF F4 FF 
   0.046014 2  0CF02300x    Rx   d 8 00 00 F2 FF FF 70 FF FF 
   0.046014 1  0CF00400x    Rx   d 8 F0 FF 9E 80 25 FF F4 FF 
   0.046309 1  0CF02300x    Rx   d 8 00 00 F2 FF FF 70 FF FF 
   0.049340 1  18FFF831x    Rx   d 8 28 11 FF FF FF FF FF FF 
   0.049684 1  1CFFF831x    Rx   d 8 85 FB FB FF FF FF FF FC 
   0.050282 1  1CFFFA26x    Rx   d 8 20 20 E8 63 00 7D FF FF 
   0.050569 2  1CFFFA26x    Rx   d 8 20 20 E8 63 00 7D FF FF 
   0.052944 2  0CF0045Bx    Rx   d 8 F0 FF 9E 80 25 FF F4 FF 
   0.052953 1  0CF0045Bx    Rx   d 8 F0 FF 9E 80 25 FF F4 FF 
   0.053239 2  0CFFF606x    Rx   d 8 FF FF FF FF FF FF FF FF 
   0.053248 1  18EFFF06x    Rx   d 8 F8 20 F2 FF FF FF FF FF 
   0.053534 2  18EFFF06x    Rx   d 8 F8 20 F2 FF FF FF FF FF 
   0.054345 1  08FFFBEAx    Rx   d 8 FB 02 00 09 01 FF FF FF 
   0.055123 2  04EF0006x    Rx   d 8 64 15 1C F3 95 2E C0 12 
   0.055443 2  18EFFF00x    Rx   d 8 64 10 0F 0F F1 09 80 BD 
   0.055721 2  0CEFFF00x    Rx   d 8 64 06 C9 7E 69 86 FF FF 
   0.055730 1  18EFFF00x    Rx   d 8 64 10 0F 0F F1 09 80 BD 
   0.056008 2  0CF00300x    Rx   d 8 FF FE 22 FF FF FF 69 FF 
   0.056016 1  0CEFFF00x    Rx   d 8 64 06 C9 7E 69 86 FF FF 
   0.056287 2  0CF00400x    Rx   d 8 F0 FF 9E 88 25 FF F4 FF 
   0.056303 1  08FFFBEAx    Rx   d 8 FB 02 12 00 FE FF FF FF 
   0.056582 2  18F00E00x    Rx   d 8 01 FA 00 00 FF FF FF FF 
   0.056590 1  0CF00300x    Rx   d 8 FF FE 22 FF FF FF 69 FF 
   0.056868 2  18FEF600x    Rx   d 8 FF 03 41 FF 03 FF FF FF 
   0.056877 1  1CFFFAEAx    Rx   d 8 00 2D 03 FF FF FF 00 32 
   0.057155 1  0CF00400x    Rx   d 8 F0 FF 9E 88 25 FF F4 FF 
   0.057171 2  1CFFFAEAx    Rx   d 8 00 2D 03 FF FF FF 00 32 
   0.057442 1  18EFFFEBx    Rx   d 8 64 90 00 00 00 00 FF FF 
   0.057737 1  18EFFFEBx    Rx   d 8 64 91 00 00 00 00 00 00 
   0.058023 1  18EFFFEBx    Rx   d 8 64 92 00 00 00 00 00 00 
   0.058310 1  18F00E00x    Rx   d 8 01 FA 00 00 FF FF FF FF 
   0.058605 1  18FEF600x    Rx   d 8 FF 03 41 FF 03 FF FF FF 
   0.059342 2  08FFFA03x    Rx   d 8 00 23 F3 FF FF FF FF FF 
   0.060407 1  18FFFB86x    Rx   d 8 FB 05 F0 FF FF FF FF FF 
   0.060694 1  0CFF1B31x    Rx   d 8 27 7E C1 00 40 28 00 00 
   0.060973 1  18FFF886x    Rx   d 8 9B 00 7D 00 64 80 F0 FF 
   0.060981 2  0CFF1B31x    Rx   d 8 27 7E C1 00 40 28 00 00 
   0.061259 1  0CFE4831x    Rx   d 8 FF FF FF FF FF FF FF F7 
   0.061300 2  198BF2BFx    Rx   d 8 64 10 DE 37 EC 37 EC 37 
   0.061554 1  18FFFA26x    Rx   d 8 00 31 00 FD FF FF FF FF 
   0.061571 2  198BF2BFx    Rx   d 8 64 11 15 38 1C 38 66 35 
   0.061841 1  18FFFF31x    Rx   d 8 09 FF FF FF FF F3 FF FF 
   0.061849 2  198BF2BFx    Rx   d 8 64 12 3E 35 77 35 FF FF 
   0.065265 2  0CF00400x    Rx   d 8 F0 FF 9E 86 25 FF F4 FF 
   0.065552 2  1CFFFA00x    Rx   d 8 03 57 40 00 73 40 1A 1A 
   0.065552 1  0CF00400x    Rx   d 8 F0 FF 9E 86 25 FF F4 FF 
   0.065839 2  0CACFF13x    Rx   d 8 32 7D 14 1F C0 FF FF FF 
   0.065839 1  1CFFFA00x    Rx   d 8 03 57 40 00 73 40 1A 1A 
   0.066125 2  18FFF413x    Rx   d 8 63 FA 03 00 20 E1 FF FF 
   0.066134 1  0CACFF13x    Rx   d 8 32 7D 14 1F C0 FF FF FF 
   0.066420 1  18FFF413x    Rx   d 8 63 FA 03 00 20 E1 FF FF 
   0.069337 2  08EFFF03x    Rx   d 8 64 61 40 2F 1F 0F FF FF 
   0.069443 1  1CFFFAEBx    Rx   d 8 00 2D 00 39 27 31 39 30 
   0.069730 2  1CFFFAEBx    Rx   d 8 00 2D 00 39 27 31 39 30 
   0.069730 1  18EFFF31x    Rx   d 8 F4 19 FF FF FF FF FF FF 
   0.070557 2  18EFFA13x    Rx   d 8 AD 12 EF D8 EF D8 00 00 
   0.072392 1  0CFF18EBx    Rx   d 8 C0 0D 00 07 40 07 07 FF 
   0.072974 2  0CF0045Bx    Rx   d 8 F0 FF 9E 86 25 FF F4 FF 
   0.072982 1  0CF0045Bx    Rx   d 8 F0 FF 9E 86 25 FF F4 FF 
   0.073269 1  18FE475Bx    Rx   d 8 FF FF FF FF FF FF FF FF 
   0.074571 2  1CFFFA5Bx    Rx   d 8 00 2D 02 00 12 1F 1A FF 
   0.074579 1  1CFFFA5Bx    Rx   d 8 00 2D 02 00 12 1F 1A FF 
   0.075161 2  18EFFA00x    Rx   d 8 64 01 FF 00 00 FF FF FF 
   0.075440 2  04EF0006x    Rx   d 8 64 15 1D F3 95 2E C0 12 
   0.075464 1  18EFFA00x    Rx   d 8 64 01 FF 00 00 FF FF FF 
   0.075718 2  0CEFFF00x    Rx   d 8 64 06 C4 7E 69 85 FF FF 
   0.076005 2  0CF00300x    Rx   d 8 FF FE 22 FF FF FF 69 FF 
   0.076013 1  0CEFFF00x    Rx   d 8 64 06 C4 7E 69 85 FF FF 
   0.076283 2  0CF00400x    Rx   d 8 F0 FF 9E 80 25 FF F4 FF 
   0.076300 1  0CF00300x    Rx   d 8 FF FE 22 FF FF FF 69 FF 
   0.076570 2  18F00F00x    Rx   d 8 43 F9 00 00 FF FF FF FF 
   0.076611 1  0CF00400x    Rx   d 8 F0 FF 9E 80 25 FF F4 FF 
   0.076865 2  18FFF413x    Rx   d 8 95 FF FF FF FF FF FF FF 
   0.076922 1  18F00F00x    Rx   d 8 43 F9 00 00 FF FF FF FF 
   0.077144 2  18FFF413x    Rx   d 8 5F 3B 62 C2 99 58 0F FF 
   0.077422 2  1CFFFA00x    Rx   d 8 01 43 A1 04 A3 03 11 00 
   0.077422 1  18FFF413x    Rx   d 8 5F 3B 62 C2 99 58 0F FF 
   0.077709 1  08EFFFEBx    Rx   d 8 F8 0B DC 00 99 7F F1 00 
   0.077996 1  14EFFFEBx    Rx   d 8 64 46 D9 00 FF FF 00 00 
   0.078004 2  08EFFFEBx    Rx   d 8 F8 0B DC 00 99 7F F1 00 
   0.078290 1  14FFFA26x    Rx   d 8 03 83 F2 FF FF FF FF FF 
   0.078569 1  1CFFFA00x    Rx   d 8 01 43 A1 04 A3 03 11 00 
   0.079339 2  08FEF103x    Rx   d 8 FF 00 00 CF FF FF FF FF 
   0.079634 1  08FEF103x    Rx   d 8 FF 00 00 CF FF FF FF FF 
   0.079634 2  08FFFA03x    Rx   d 8 02 8C 80 25 FF FF FF FF 
   0.079912 1  18EFFF31x    Rx   d 8 F1 07 CC CC 00 00 CC EC 
   0.080191 1  18EFFF31x    Rx   d 8 F0 02 CC 00 30 F0 FF FF 
   0.080560 1  0CFFF331x    Rx   d 8 31 C0 24 FF FF FF FF F8 
   0.080846 1  18FFFF31x    Rx   d 8 EC FF FF FF FF FD FF FF 
   0.080855 2  0CFFF331x    Rx   d 8 31 C0 24 FF FF FF FF F8 
   0.081141 2  18FFFF31x    Rx   d 8 EC FF FF FF FF FD FF FF 
   0.083025 2  18EFFFF2x    Rx   d 8 64 58 FC F4 80 FF C0 24 
   0.083058 1  18EFFFF2x    Rx   d 8 FC 04 32 00 64 00 FF FF 
   0.083312 2  18EFFFF2x    Rx   d 8 FC 04 32 00 64 00 FF FF 
   0.085336 2  0CF00400x    Rx   d 8 F0 FF 9E 84 25 FF F4 FF 
   0.085622 1  0CF00400x    Rx   d 8 F0 FF 9E 84 25 FF F4 FF 
   0.085622 2  18FD9400x    Rx   d 8 46 1D FF FF FF FF FF FF 
   0.085917 2  1CFFFA00x    Rx   d 8 01 44 04 00 13 4A 00 00 
   0.085925 1  18FD9400x    Rx   d 8 46 1D FF FF FF FF FF FF 
   0.086204 2  1CFFFA00x    Rx   d 8 03 56 02 00 00 03 FF FF 
   0.086212 1  1CFFFA00x    Rx   d 8 01 44 04 00 13 4A 00 00 
   0.086507 1  1CFFFA00x    Rx   d 8 03 56 02 00 00 03 FF FF 
   0.089415 1  1CFFFA64x    Rx   d 8 00 2D 00 0B 04 0A 0B 0A 
   0.089710 2  1CFFFA64x    Rx   d 8 00 2D 00 0B 04 0A 0B 0A 
   0.090456 1  1CFFFA26x    Rx   d 8 20 20 E8 63 00 7D FF FF 
   0.090750 2  1CFFFA26x    Rx   d 8 20 20 E8 63 00 7D FF FF 
   0.091291 2  198BF2BFx    Rx   d 8 64 10 F3 37 EC 37 EC 37 
   0.091561 2  198BF2BFx    Rx   d 8 64 11 1C 38 1C 38 77 35 
   0.091840 2  198BF2BFx    Rx   d 8 64 12 4B 35 89 35 FF FF 
   0.092946 2  0CF0045Bx    Rx   d 8 F0 FF 9E 84 25 FF F4 FF 
   0.092954 1  0CF0045Bx    Rx   d 8 F0 FF 9E 84 25 FF F4 FF 
   0.093241 2  18EFFF06x    Rx   d 8 F8 20 F2 FF FF FF FF FF 
   0.093241 1  18EFFF06x    Rx   d 8 F8 20 F2 FF FF FF FF FF 
   0.093536 1  0CFFEC5Bx    Rx   d 8 FF FF FF FF FF FF FF FF 
   0.093822 1  08FFFA5Bx    Rx   d 8 00 22 09 F3 0D 0A 0C FF 
   0.094420 1  08FFFBEAx    Rx   d 8 FB 02 00 08 01 FF FF FF 
   0.095158 2  04EF0006x    Rx   d 8 64 15 1E F3 95 2E C0 12 
   0.095887 2  0CEFFF00x    Rx   d 8 64 06 C9 7E 69 86 FF FF 
   0.096174 2  0CF00300x    Rx   d 8 FF FE 22 FF FF FF 69 FF 
   0.096182 1  0CEFFF00x    Rx   d 8 64 06 C9 7E 69 86 FF FF 
   0.096452 2  0CF00400x    Rx   d 8 F0 FF 9E 84 25 FF F4 FF 
   0.096468 1  0CF00300x    Rx   d 8 FF FE 22 FF FF FF 69 FF 
   0.096739 2  0CF02300x    Rx   d 8 00 00 F2 FF FF 70 FF FF 
   0.096747 1  0CF00400x    Rx   d 8 F0 FF 9E 84 25 FF F4 FF 
   0.097026 2  1CFFFA00x    Rx   d 8 03 55 00 07 02 00 02 FF 
   0.097042 1  0CF02300x    Rx   d 8 00 00 F2 FF FF 70 FF FF 
   0.097312 2  1CFFFA00x    Rx   d 8 00 50 41 0F 7B 76 FF FF 
   0.097320 1  0CEFFFEBx    Rx   d 8 F2 25 00 FF FF FF FF FF 
   0.097607 1  08EFFFEBx    Rx   d 8 64 48 FF FF FF FD FF FF 
   0.097902 1  1CFFFA00x    Rx   d 8 03 55 00 07 02 00 02 FF 
   0.100605 1  18FFFF31x    Rx   d 8 87 FF 00 FF FF FF FF FF 
   0.102359 1  08FFFAEAx    Rx   d 8 00 32 F2 00 00 FF FF FF 
   0.103022 2  08FEF15Bx    Rx   d 8 FF 00 00 CF FF FF FF FF 
   0.103030 1  08FEF15Bx    Rx   d 8 FF 00 00 CF FF FF FF FF 
   0.103309 2  08FFF4F2x    Rx   d 8 5E 05 FC 00 00 00 F0 FF 
   0.103309 1  18EFFF5Bx    Rx   d 8 64 54 FF 7E 7E F4 CF FF 
   0.103579 2  14EFFFF2x    Rx   d 8 64 69 CF FC B4 1A 01 28 
   0.103596 1  08EFFF5Bx    Rx   d 8 64 57 2F FF FF 00 00 FF 
   0.103882 1  08FFFA5Bx    Rx   d 8 00 21 60 22 60 22 FF FF 
   0.105717 2  0CF00400x    Rx   d 8 F0 FF 9E 82 25 FF F4 FF 
   0.106004 1  0CF00400x    Rx   d 8 F0 FF 9E 82 25 FF F4 FF 
   0.106004 2  18F00E00x    Rx   d 8 00 FA 00 00 FF FF FF FF 
   0.106299 2  18FEDF00x    Rx   d 8 82 80 25 FF FF FF FF 00 
   0.106307 1  18F00E00x    Rx   d 8 00 FA 00 00 FF FF FF FF 
   0.106594 2  1CFFFB00x    Rx   d 8 01 19 00 00 00 00 FF FF 
   0.106602 1  18FFFA26x    Rx   d 8 00 24 00 FF FF FF FF FF 
   0.106889 1  18FEDF00x    Rx   d 8 82 80 25 FF FF FF FF 00 
   0.109330 2  08EFFF03x    Rx   d 8 64 61 40 2F 1F 0F FF FF 
   0.109772 1  1CFFFAEBx    Rx   d 8 00 2D 01 03 FF FF FF FF 
   0.110067 2  1CFFFAEBx    Rx   d 8 00 2D 01 03 FF FF FF FF 
   0.110542 2  18EFFA13x    Rx   d 8 AD 12 EF D8 EF D8 00 00 
   0.110551 1  0CFF1B31x    Rx   d 8 27 7B C1 FE 5F 3C 00 00 
   0.110837 2  0CFF1B31x    Rx   d 8 27 7B C1 FE 5F 3C 00 00 
   0.111665 1  18EFFFFBx    Rx   d 8 84 01 00 00 00 00 00 00 
   0.112132 1  18FFF8FBx    Rx   d 8 54 08 05 00 00 00 00 00 
   0.112418 1  1CFFFA79x    Rx   d 8 00 2D 00 0E 0A 0E 0E 0D 
   0.112713 2  1CFFFA79x    Rx   d 8 00 2D 00 0E 0A 0E 0E 0D 
   0.113008 2  0CF0045Bx    Rx   d 8 F0 FF 9E 82 25 FF F4 FF 
   0.113016 1  0CFF18EBx    Rx   d 8 C0 2C 00 01 40 07 01 FF 
   0.113287 1  0CF0045Bx    Rx   d 8 F0 FF 9E 82 25 FF F4 FF 
   0.113573 1  18E726EAx    Rx   d 8 A8 40 04 FF 08 01 00 00 
   0.113860 1  08FFFB26x    Rx   d 8 F9 01 01 80 00 FF FF FF 
   0.114163 2  08FFFB26x    Rx   d 8 F9 01 01 80 00 FF FF FF 
   0.114581 2  1CFFFA5Bx    Rx   d 8 00 2D 03 FF FF FF 06 06 
   0.114581 1  1CFFFA5Bx    Rx   d 8 00 2D 03 FF FF FF 06 06 
   0.115187 2  04EF0006x    Rx   d 8 64 15 1F F3 95 2E C0 12 
   0.115474 2  0CEFFF00x    Rx   d 8 64 06 C5 7E 69 86 FF FF 
   0.115761 2  0CF00300x    Rx   d 8 FF FE 22 FF FF FF 69 FF 
   0.115761 1  0CEFFF00x    Rx   d 8 64 06 C5 7E 69 86 FF FF 
   0.116039 2  0CF00400x    Rx   d 8 F0 FF 9E 7C 25 FF F4 FF 
   0.116047 1  1CE6EA26x    Rx   d 8 A8 40 04 00 08 01 00 00 
   0.116334 1  0CF00300x    Rx   d 8 FF FE 22 FF FF FF 69 FF 
   0.116334 2  18FEF200x    Rx   d 8 24 01 FF FF FF FF FF FF 
   0.116621 2  1CFFFB00x    Rx   d 8 01 18 FD 00 00 00 FF FF 
   0.116629 1  0CF00400x    Rx   d 8 F0 FF 9E 7C 25 FF F4 FF 
   0.116924 1  18FEF200x    Rx   d 8 24 01 FF FF FF FF FF FF 
   0.119570 1  18FFFE31x    Rx   d 8 FD FB FB FB FB FF FF FF 
   0.120553 1  0CFFF331x    Rx   d 8 31 C0 24 FF FF FF FF F8 
   0.120848 2  0CFFF331x    Rx   d 8 31 C0 24 FF FF FF FF F8 
   0.121290 2  198BF2BFx    Rx   d 8 64 10 F3 37 F3 37 F3 37 
   0.121569 2  198BF2BFx    Rx   d 8 64 11 23 38 2A 38 7C 35 
   0.121847 2  198BF2BFx    Rx   d 8 64 12 50 35 8D 35 FF FF 
   0.122994 2  18EFFFF2x    Rx   d 8 64 58 FC F4 80 FF C0 24 
   0.125296 2  0CF00400x    Rx   d 8 F0 FF 9E 7A 25 FF F4 FF 
   0.125583 2  18F00F00x    Rx   d 8 43 F9 00 00 FF FF FF FF 
   0.125591 1  0CF00400x    Rx   d 8 F0 FF 9E 7A 25 FF F4 FF 
   0.125870 2  18FFF413x    Rx   d 8 95 FF FF FF FF FF FF FF 
   0.125886 1  18F00F00x    Rx   d 8 43 F9 00 00 FF FF FF FF 
   0.126173 2  1CFFFB00x    Rx   d 8 01 17 00 00 00 00 FF FF 
   0.128401 1  18FFF826x    Rx   d 8 C7 FF FF FF FF FF FF FF 
   0.128720 1  18FFF826x    Rx   d 8 C6 FF FF FF FF FF FF FF 
   0.129040 1  18FFFE26x    Rx   d 8 11 FF FF FF FF FF FF FF 
   0.129482 1  18FFFE26x    Rx   d 8 C4 FF FF FD FF FF FF FF 
   0.129794 1  18FFFA26x    Rx   d 8 07 00 00 00 31 06 80 00 
   0.130277 1  1CFFFA64x    Rx   d 8 00 2D 01 00 FF FF FF FF 
   0.130564 1  1CFFFA26x    Rx   d 8 20 20 E8 63 00 7D FF FF 
   0.130580 2  1CFFFA64x    Rx   d 8 00 2D 01 00 FF FF FF FF 
   0.130867 2  1CFFFA26x    Rx   d 8 20 20 E8 63 00 7D FF FF 
   0.132300 1  18FE47EAx    Rx   d 8 FF FF FF FF FF FF FF FF 
   0.132964 2  0CF0045Bx    Rx   d 8 F0 FF 9E 7A 25 FF F4 FF 
   0.132972 1  0CF0045Bx    Rx   d 8 F0 FF 9E 7A 25 FF F4 FF 
   0.133259 2  0CFFF606x    Rx   d 8 FF FF FF FF FF FF FF FF 
   0.133267 1  18EFFF06x    Rx   d 8 F8 20 F2 FF FF FF FF FF 
   0.133554 2  18EFFF06x    Rx   d 8 F8 20 F2 FF FF FF FF FF 
   0.134332 1  08FFFBEAx    Rx   d 8 FB 02 00 08 01 FF FF FF 
   0.135159 2  04EF0006x    Rx   d 8 64 15 10 F3 A4 2E C0 12 
   0.135438 2  0CEFFF00x    Rx   d 8 64 06 CC 7E 69 86 FF FF 
   0.135725 2  0CF00300x    Rx   d 8 FF FE 22 FF FF FF 69 FF 
   0.135733 1  0CEFFF00x    Rx   d 8 64 06 CC 7E 69 86 FF FF 
   0.136003 2  0CF00400x    Rx   d 8 F0 FF 9E 82 25 FF F4 FF 
   0.136019 1  08FFFBEAx    Rx   d 8 FB 02 12 00 FE FF FF FF 
   0.136298 2  18EF0600x    Rx   d 8 64 0E 50 00 FF FF FF FF 
   0.136306 1  0CF00300x    Rx   d 8 FF FE 22 FF FF FF 69 FF 
   0.136593 1  1CFFFAEAx    Rx   d 8 00 2D 04 19 40 FF FF FF 
   0.136593 2  18EFFF00x    Rx   d 8 F8 21 04 00 00 00 00 00 
   0.136871 1  0CF00400x    Rx   d 8 F0 FF 9E 82 25 FF F4 FF 
   0.136888 2  1CFFFB00x    Rx   d 8 01 16 00 00 00 00 FF FF 
   0.137166 1  18EFFF00x    Rx   d 8 F8 21 04 00 00 00 00 00 
   0.137175 2  1CFFFAEAx    Rx   d 8 00 2D 04 19 40 FF FF FF 
   0.137478 1  14FFFA26x    Rx   d 8 03 82 01 00 00 FE FB 0D 
   0.143032 1  10FF145Bx    Rx   d 8 FF FF FF FF FF FF FF FF 
   0.143310 1  18E726EAx    Rx   d 8 A8 40 04 FF 09 01 00 00 
   0.145498 2  0CF00400x    Rx   d 8 F0 FF 9E 88 25 FF F4 FF 
   0.145784 2  0CF02300x    Rx   d 8 00 00 F2 FF FF 70 FF FF 
   0.145784 1  0CF00400x    Rx   d 8 F0 FF 9E 88 25 FF F4 FF 
   0.146079 2  0CFD9200x    Rx   d 8 F4 FF FF FF FF FF FF FF 
   0.146096 1  0CF02300x    Rx   d 8 00 00 F2 FF FF 70 FF FF 
   0.146366 2  1CFFFA00x    Rx   d 8 49 05 00 00 00 00 FF FF 
   0.147218 1  18FE47EBx    Rx   d 8 FF FF FF FF FF FF FF FF 
   0.147865 1  10FFFE19x    Rx   d 8 0B FF FF 1A FC 00 FF FF 
   0.149331 2  08EFFF03x    Rx   d 8 64 61 41 2F 1F 0F FF FF 
   0.149635 1  1CFFFAEBx    Rx   d 8 00 2D 02 00 14 12 08 FF 
   0.149921 2  1CFFFAEBx    Rx   d 8 00 2D 02 00 14 12 08 FF 
   0.149921 1  1CFFF831x    Rx   d 8 85 FB FB FF FF FF FF FC 
   0.150257 1  14FFFA26x    Rx   d 8 03 81 00 00 C8 00 FF FF 
   0.150536 2  18EFFA13x    Rx   d 8 AD 12 ED D8 ED D8 00 00 
   0.150560 1  1CE6EA26x    Rx   d 8 A8 40 04 00 09 01 00 00 
   0.150855 1  08FFF831x    Rx   d 8 16 FF FF FF FF FF FF FF 
   0.151289 2  198BF2BFx    Rx   d 8 64 10 00 38 07 38 00 38 
   0.151568 2  198BF2BFx    Rx   d 8 64 11 31 38 38 38 89 35 
   0.151846 2  198BF2BFx    Rx   d 8 64 12 5D 35 96 35 FF FF 
   0.152354 1  14FFFEEAx    Rx   d 8 43 09 01 03 00 FF FF FF 
   0.152969 2  0CF0045Bx    Rx   d 8 F0 FF 9E 88 25 FF F4 FF 
   0.152977 1  0CF0045Bx    Rx   d 8 F0 FF 9E 88 25 FF F4 FF 
   0.153264 1  0CFF18EBx    Rx   d 8 C0 17 00 02 40 07 02 FF 
   0.153542 1  18FFFA26x    Rx   d 8 07 03 02 01 64 F1 00 00 
   0.154574 2  1CFFFA5Bx    Rx   d 8 00 2D 04 06 12 FF FF FF 
   0.154574 1  1CFFFA5Bx    Rx   d 8 00 2D 04 06 12 FF FF FF 
   0.155156 2  04EF0006x    Rx   d 8 64 15 11 F3 9A 2E C0 12 
   0.155525 2  18EFFF00x    Rx   d 8 64 10 0F 0F F0 09 83 BD 
   0.155803 2  0CEFFF00x    Rx   d 8 64 06 C6 7E 69 86 FF FF 
   0.155820 1  18EFFF00x    Rx   d 8 64 10 0F 0F F0 09 83 BD 
   0.156098 2  0CF00300x    Rx   d 8 FF FE 21 FF FF FF 69 FF 
   0.156106 1  0CEFFF00x    Rx   d 8 64 06 C6 7E 69 86 FF FF 
   0.156377 2  0CF00400x    Rx   d 8 F0 FF 9E 90 25 FF F4 FF 
   0.156393 1  1CFFFA79x    Rx   d 8 00 2D 01 03 FF FF FF FF 
   0.156663 2  18F00E00x    Rx   d 8 02 FA 00 00 FF FF FF FF 
   0.156688 1  0CF00300x    Rx   d 8 FF FE 21 FF FF FF 69 FF 
   0.156950 2  1CFFFA00x    Rx   d 8 49 04 C6 42 01 00 FF FF 
   0.156966 1  0CF00400x    Rx   d 8 F0 FF 9E 90 25 FF F4 FF 
   0.157237 2  1CFFFA79x    Rx   d 8 00 2D 01 03 FF FF FF FF 
   0.157261 1  18F00E00x    Rx   d 8 02 FA 00 00 FF FF FF FF 
   0.157523 2  18FECAF2x    Rx   d 8 00 FF 00 00 00 00 FF FF 
   0.157540 1  14EFFFEBx    Rx   d 8 64 95 06 0C F0 FF FF FF 
   0.157827 2  18FECA06x    Rx   d 8 00 FF 00 00 00 00 FF FF 
   0.159358 2  08FFFA03x    Rx   d 8 00 23 F3 FF FF FF FF FF 
   0.160268 1  18FFFA26x    Rx   d 8 00 31 00 FD FF FF FF FF 
   0.160555 1  0CFF1B31x    Rx   d 8 27 7A C1 FD 6F FE 00 00 
   0.160841 1  0CFFF331x    Rx   d 8 31 C0 24 FF FF FF FF F8 
   0.160849 2  0CFF1B31x    Rx   d 8 27 7A C1 FD 6F FE 00 00 
   0.161136 2  0CFFF331x    Rx   d 8 31 C0 24 FF FF FF FF F8 
   0.162308 1  14FFFEEAx    Rx   d 8 47 A5 02 00 00 85 7E FF 
   0.162652 1  18FFF886x    Rx   d 8 9B 00 7D 00 64 80 F0 FF 
   0.163028 2  18EFFFF2x    Rx   d 8 64 58 FC F4 80 FF C0 24 
   0.163061 1  18EFFFF2x    Rx   d 8 FC 04 FA 02 64 00 FF FF 
   0.163315 2  18EFFFF2x    Rx   d 8 FC 04 FA 02 64 00 FF FF 
   0.163799 1  18FFF486x    Rx   d 8 65 FF 00 00 FF 81 FF FF 
   0.165363 2  0CF00400x    Rx   d 8 F0 FF 9E 8C 25 FF F4 FF 
   0.165642 2  1CFFFA00x    Rx   d 8 49 03 FC 35 E3 00 FF FF 
   0.165642 1  0CF00400x    Rx   d 8 F0 FF 9E 8C 25 FF F4 FF 
   0.165928 2  0CACFF13x    Rx   d 8 32 7D 14 1F C0 FF FF FF 
   0.166215 2  18FFF413x    Rx   d 8 63 FA 03 00 20 E1 FF FF 
   0.166223 1  0CACFF13x    Rx   d 8 32 7D 14 1F C0 FF FF FF 
   0.166518 1  18FFF413x    Rx   d 8 63 FA 03 00 20 E1 FF FF 
   0.167878 1  18FFFE31x    Rx   d 8 05 FC FF FF FF FF FF FF 
   0.169353 1  18FFFA31x    Rx   d 8 00 2F 11 FF FF FF FF FF 
   0.169705 1  18EFFF31x    Rx   d 8 F4 19 FF FF FF FF FF FF 
   0.170000 1  1CFFFA64x    Rx   d 8 00 2D 02 00 00 00 0E FF 
   0.170295 2  1CFFFA64x    Rx   d 8 00 2D 02 00 00 00 0E FF 
   0.172695 1  1CFFFA26x    Rx   d 8 20 20 E8 63 00 7D FF FF 
   0.172949 2  0CF0045Bx    Rx   d 8 F0 FF 9E 8C 25 FF F4 FF 
   0.172965 1  0CF0045Bx    Rx   d 8 F0 FF 9E 8C 25 FF F4 FF 
   0.173244 2  18EFFF06x    Rx   d 8 F8 20 F2 FF FF FF FF FF 
   0.173260 1  18EFFF06x    Rx   d 8 F8 20 F2 FF FF FF FF FF 
   0.173522 2  1CFFFA26x    Rx   d 8 20 20 E8 63 00 7D FF FF 
   0.174399 1  08FFFBEAx    Rx   d 8 FB 02 00 08 01 FF FF FF 
   0.174964 1  18EAFF06x    Rx   d 3 E5 FE 00                
   0.174972 2  18EAFF06x    Rx   d 3 E5 FE 00                
   0.175243 2  04EF0006x    Rx   d 8 64 15 12 F3 9A 2E C0 12 
   0.175529 2  0CEFFF00x    Rx   d 8 64 06 C0 7E 69 85 FF FF 
   0.175816 2  0CF00300x    Rx   d 8 FF FE 22 FF FF FF 69 FF 
   0.175824 1  0CEFFF00x    Rx   d 8 64 06 C0 7E 69 85 FF FF 
   0.176095 2  0CF00400x    Rx   d 8 F0 FF 9E 88 25 FF F4 FF 
   0.176111 1  0CF00300x    Rx   d 8 FF FE 22 FF FF FF 69 FF 
   0.176381 2  18F00F00x    Rx   d 8 43 F9 00 00 FF FF FF FF 
   0.176398 1  0CF00400x    Rx   d 8 F0 FF 9E 88 25 FF F4 FF 
   0.176676 2  18FEEE00x    Rx   d 8 71 3B FF FF FF FF FF FF 
   0.176685 1  18F00F00x    Rx   d 8 43 F9 00 00 FF FF FF FF 
   0.176963 2  18FFF413x    Rx   d 8 95 FF FF FF FF FF FF FF 
   0.176979 1  18FEEE00x    Rx   d 8 71 3B FF FF FF FF FF FF 
   0.177242 2  18FFF413x    Rx   d 8 5F 3B 62 C2 99 58 1F FF 
   0.177397 1  08EFFFEBx    Rx   d 8 F8 0B DC 00 99 7F F1 00 
   0.177676 1  14EFFFEBx    Rx   d 8 64 45 13 02 00 00 E4 00 
   0.177692 2  08EFFFEBx    Rx   d 8 F8 0B DC 00 99 7F F1 00 
   0.177954 1  18FFF413x    Rx   d 8 5F 3B 62 C2 99 58 1F FF 
   0.179347 2  08FEF103x    Rx   d 8 FF 00 00 CF FF FF FF FF 
   0.179634 2  08FFFA03x    Rx   d 8 02 8C 88 25 FF FF FF FF 
   0.179642 1  08FEF103x    Rx   d 8 FF 00 00 CF FF FF FF FF 
   0.179920 1  18EFFF31x    Rx   d 8 F1 07 CC CC 00 00 CC EC 
   0.180199 1  18EFFF31x    Rx   d 8 F0 02 CC 00 30 F0 FF FF 
   0.180592 1  0CFE4831x    Rx   d 8 FF FF FF FF FF FF FF F7 
   0.181305 2  198BF2BFx    Rx   d 8 64 10 F3 37 FA 37 F3 37 
   0.181575 2  198BF2BFx    Rx   d 8 64 11 2A 38 23 38 80 35 
   0.181854 2  198BF2BFx    Rx   d 8 64 12 54 35 92 35 FF FF 
   0.185262 2  0CF00400x    Rx   d 8 F0 FF 9E 8C 25 FF F4 FF 
   0.185548 1  0CF00400x    Rx   d 8 F0 FF 9E 8C 25 FF F4 FF 
   0.185556 2  18FD9400x    Rx   d 8 46 1D FF FF FF FF FF FF 
   0.185851 1  18FD9400x    Rx   d 8 46 1D FF FF FF FF FF FF 
   0.186556 1  18EF00FAx    Rx   d 8 56 0C 92 05 FF FF FF FF 
   0.186851 2  18EF00FAx    Rx   d 8 56 0C 92 05 FF FF FF FF 
   0.189341 2  08EFFF03x    Rx   d 8 64 61 41 2F 1F 0F FF FF 
   0.189644 1  1CFFFAEBx    Rx   d 8 00 2D 03 FF FF FF 00 35 
   0.189923 2  18EFFA00x    Rx   d 8 56 0C 92 05 00 05 FB 1C 
   0.190210 2  1CFFFAEBx    Rx   d 8 00 2D 03 FF FF FF 00 35 
   0.190226 1  18EFFA00x    Rx   d 8 56 0C 92 05 00 05 FB 1C 
   0.190496 2  18FECA03x    Rx   d 8 00 FF 00 00 00 00 FF FF 
   0.190775 2  18EFFA13x    Rx   d 8 AD 12 ED D8 ED D8 00 00 
   0.190799 1  18FECA03x    Rx   d 8 00 FF 00 00 00 00 FF FF 
   0.191053 2  18FFF8C5x    Rx   d 8 9B 00 7D 00 64 80 F0 00 
   0.191922 1  1CFFFA79x    Rx   d 8 00 2D 02 00 00 00 2C FF 
   0.192208 2  1CFFFA79x    Rx   d 8 00 2D 02 00 00 00 2C FF 
   0.192667 1  0CFF18EBx    Rx   d 8 C0 02 00 05 40 07 03 FF 
   0.192970 2  0CF0045Bx    Rx   d 8 F0 FF 9E 8C 25 FF F4 FF 
   0.192978 1  0CF0045Bx    Rx   d 8 F0 FF 9E 8C 25 FF F4 FF 
   0.193265 1  08FFFB26x    Rx   d 8 F9 01 01 80 00 FF FF FF 
   0.193560 1  0CFFEC5Bx    Rx   d 8 FF FF FF FF FF FF FF FF 
   0.193609 2  08FFFB26x    Rx   d 8 F9 01 01 80 00 FF FF FF 
   0.193847 1  08FFFA5Bx    Rx   d 8 00 22 09 F3 BE 0A 0C FF 
   0.194691 2  1CFFFA5Bx    Rx   d 8 00 2D 05 FF FF FF FF FF 
   0.194699 1  1CFFFA5Bx    Rx   d 8 00 2D 05 FF FF FF FF FF 
   0.195256 2  04EF0006x    Rx   d 8 64 15 13 F3 9A 2E C0 12 
   0.195878 2  0CEFFF00x    Rx   d 8 64 06 C5 7E 69 85 FF FF 
   0.196165 2  0CF00300x    Rx   d 8 FF FE 22 FF FF FF 69 FF 
   0.196173 1  0CEFFF00x    Rx   d 8 64 06 C5 7E 69 85 FF FF 
   0.196444 2  0CF00400x    Rx   d 8 F0 FF 9E 8C 25 FF F4 FF 
   0.196460 1  0CF00300x    Rx   d 8 FF FE 22 FF FF FF 69 FF 
   0.196730 2  0CF02300x    Rx   d 8 00 00 F2 FF FF 70 FF FF 
   0.196739 1  0CF00400x    Rx   d 8 F0 FF 9E 8C 25 FF F4 FF 
   0.197017 2  1CFFFA00x    Rx   d 8 00 50 38 0F 7F 76 FF FF 
   0.197025 1  0CF02300x    Rx   d 8 00 00 F2 FF FF 70 FF FF 
   0.197500 1  08EFFFEBx    Rx   d 8 64 48 FF FF FF FD FF FF 
   0.200212 1  18EF00FAx    Rx   d 8 B5 BC F5 05 5F 05 FF FF 
   0.200499 2  18EF00FAx    Rx   d 8 B5 BC F5 05 5F 05 FF FF 
   0.200548 1  0CFFF331x    Rx   d 8 31 C0 24 FF FF FF FF F8 
   0.200835 1  18FFFF31x    Rx   d 8 87 FF 00 FF FF FF FF FF 
   0.200843 2  0CFFF331x    Rx   d 8 31 C0 24 FF FF FF FF F8 
   0.202350 1  08FFFAEAx    Rx   d 8 00 32 F2 00 00 FF FF FF 
   0.203014 2  18EFFFF2x    Rx   d 8 64 58 FC F4 80 FF C0 24 
   0.203055 1  08FEF15Bx    Rx   d 8 FF 00 00 CF FF FF FF FF 
   0.203309 2  08FEF15Bx    Rx   d 8 FF 00 00 CF FF FF FF FF 
   0.203341 1  08EFFF5Bx    Rx   d 8 64 57 2F FF FF 00 00 FF 
   0.203587 2  08FFF4F2x    Rx   d 8 5E 05 FC 00 00 00 F0 FF 
   0.203628 1  08FFFA5Bx    Rx   d 8 00 21 60 22 B0 22 FF FF 
   0.203923 1  18FFFA26x    Rx   d 8 00 24 00 FF FF FF FF FF 
   0.204431 2  18FEE500x    Rx   d 8 F2 30 00 00 FF FF FF FF 
   0.204726 1  18FEE500x    Rx   d 8 F2 30 00 00 FF FF FF FF 
   0.205283 2  18EFFA00x    Rx   d 8 00 00 00 00 00 34 FD 12 
   0.205578 1  18EFFA00x    Rx   d 8 00 00 00 00 00 34 FD 12 
   0.205586 2  18EFFA00x    Rx   d 8 01 F6 00 00 00 00 00 00 
   0.205864 2  0CF00400x    Rx   d 8 F0 FF 9E 88 25 FF F4 FF 
   0.205889 1  18EFFA00x    Rx   d 8 01 F6 00 00 00 00 00 00 
   0.206159 2  18EFFA00x    Rx   d 8 02 00 00 00 00 00 00 39 
   0.206168 1  0CF00400x    Rx   d 8 F0 FF 9E 88 25 FF F4 FF 
   0.206446 2  18F00E00x    Rx   d 8 00 FA 00 00 FF FF FF FF 
   0.206462 1  18EFFA00x    Rx   d 8 02 00 00 00 00 00 00 39 
   0.206725 2  18EFFA00x    Rx   d 8 03 21 63 09 3C E3 35 FC 
   0.206757 1  18F00E00x    Rx   d 8 00 FA 00 00 FF FF FF FF 
   0.207020 2  18FEDF00x    Rx   d 8 82 80 25 FF FF FF FF 00 
   0.207036 1  18EFFA00x    Rx   d 8 03 21 63 09 3C E3 35 FC 
   0.207298 2  18EFFA00x    Rx   d 8 04 00 00 4F 74 3E 67 76 
   0.207323 1  18FEDF00x    Rx   d 8 82 80 25 FF FF FF FF 00 
   0.207593 2  18EFFA00x    Rx   d 8 05 43 0D FF 04 00 02 02 
   0.207609 1  18EFFA00x    Rx   d 8 04 00 00 4F 74 3E 67 76 
   0.207896 1  18EFFA00x    Rx   d 8 05 43 0D FF 04 00 02 02 
   0.207937 2  18EFFA00x    Rx   d 8 06 00 17 00 00 00 15 00 
   0.208232 1  18EFFA00x    Rx   d 8 06 00 17 00 00 00 15 00 
   0.208240 2  18EFFA00x    Rx   d 8 07 06 0F 4F 8C 04 00 02 
   0.208527 2  18EFFA00x    Rx   d 8 08 17 19 1A 1B 0C 0B 1C 
   0.208527 1  18EFFA00x    Rx   d 8 07 06 0F 4F 8C 04 00 02 
   0.208814 1  18EFFA00x    Rx   d 8 08 17 19 1A 1B 0C 0B 1C 
   0.208822 2  18EFFA00x    Rx   d 8 09 14 2C 0B 01 0B 28 29 
   0.209100 2  18EFFA00x    Rx   d 8 0A 2A 2B 19 1A 1B 0B 42 
   0.209108 1  18EFFA00x    Rx   d 8 09 14 2C 0B 01 0B 28 29 
   0.209395 2  18EFFA00x    Rx   d 8 0B 54 32 AA 3D 23 40 C7 
   0.209395 1  18FFFF31x    Rx   d 8 06 FF FF FF FF FF FF 3F 
   0.209666 1  18EFFA00x    Rx   d 8 0A 2A 2B 19 1A 1B 0B 42 
   0.209698 2  18EFFA00x    Rx   d 8 0C 00 00 00 00 40 14 FC 
   0.209960 1  1CFFFA64x    Rx   d 8 00 2D 03 FF FF FF FF FF 
   0.209985 2  18EFFA00x    Rx   d 8 0D A7 3D A3 D7 0A BD CC 
   0.210239 1  18EFFA00x    Rx   d 8 0B 54 32 AA 3D 23 40 C7 
   0.210280 2  1CFFFA64x    Rx   d 8 00 2D 03 FF FF FF FF FF 
   0.210534 1  18EFFA00x    Rx   d 8 0C 00 00 00 00 40 14 FC 
   0.210550 2  18EFFA00x    Rx   d 8 0E CC CD 42 72 4B 65 C2 
   0.210821 1  0CFF1B31x    Rx   d 8 27 7B C1 00 70 7B 00 00 
   0.210878 2  18EFFA00x    Rx   d 8 0F 91 B0 00 43 AE CD 91 
   0.211091 1  18EFFA00x    Rx   d 8 0D A7 3D A3 D7 0A BD CC 
   0.211156 2  0CFF1B31x    Rx   d 8 27 7B C1 00 70 7B 00 00 
   0.211369 1  18EFFA00x    Rx   d 8 0E CC CD 42 72 4B 65 C2 
   0.211435 2  18EFFA00x    Rx   d 8 10 42 9E 96 D3 44 BD CD 
   0.211648 1  18EFFA00x    Rx   d 8 0F 91 B0 00 43 AE CD 91 
   0.211714 2  18EFFA00x    Rx   d 8 11 73 0E A7 20 08 42 09 
   0.211927 1  18EFFA00x    Rx   d 8 10 42 9E 96 D3 44 BD CD 
   0.212205 2  18EFFA00x    Rx   d 8 12 49 B0 43 E7 59 5E 00 
   0.212205 1  18EFFA00x    Rx   d 8 11 73 0E A7 20 08 42 09 
   0.212492 1  14FFFFEAx    Rx   d 8 16 FF 00 72 FF FE 40 21 
   0.212492 2  18EFFA00x    Rx   d 8 13 22 6A 6E 41 62 16 38 
   0.212770 1  18EFFA00x    Rx   d 8 12 49 B0 43 E7 59 5E 00 
   0.212779 2  18EFFA00x    Rx   d 8 14 3F 9D 70 A4 00 00 00 
   0.213049 1  0CF0045Bx    Rx   d 8 F0 FF 9E 88 25 FF F4 FF 
   0.213057 2  0CF0045Bx    Rx   d 8 F0 FF 9E 88 25 FF F4 FF 
   0.213336 1  10FD925Bx    Rx   d 8 F4 FF FF FF FF FF FF FF 
   0.213352 2  0CFFF606x    Rx   d 8 FF FF FF FF FF FF FF FF 
   0.213606 1  18EFFA00x    Rx   d 8 13 22 6A 6E 41 62 16 38 
   0.213639 2  10FD925Bx    Rx   d 8 F4 FF FF FF FF FF FF FF 
   0.213901 1  18FFFF26x    Rx   d 8 26 FF DF FF FF FF FF FF 
   0.213917 2  18EFFA00x    Rx   d 8 15 00 3F 56 D1 C9 3B 55 
   0.214196 1  18EFFF06x    Rx   d 8 F8 20 F2 FF FF FF FF FF 
   0.214212 2  18EFFF06x    Rx   d 8 F8 20 F2 FF FF FF FF FF 
   0.214491 1  08FFFBEAx    Rx   d 8 FB 02 21 00 00 FF FF FF 
   0.214499 2  18EFFA00x    Rx   d 8 16 7A 3F 00 00 00 00 00 
   0.214777 1  08FFFBEAx    Rx   d 8 FB 02 22 00 00 FF FF FF 
   0.214794 2  18EFFA00x    Rx   d 8 17 00 00 00 43 36 D0 89 
   0.215072 1  08FFFBEAx    Rx   d 8 FB 02 23 00 00 FF FF FF 
   0.215089 2  18EFFA00x    Rx   d 8 18 43 33 42 46 41 C4 DF 
   0.215359 2  04EF0006x    Rx   d 8 64 15 14 F3 9A 2E C0 12 
   0.215359 1  08FFFBEAx    Rx   d 8 FB 02 24 00 00 FF FF FF 
   0.215638 2  0CEFFF00x    Rx   d 8 64 06 C1 7E 69 85 FF FF 
   0.215646 1  08FFFBEAx    Rx   d 8 FB 02 0B 0A 00 FF FF FF 
   0.215924 2  0CF00300x    Rx   d 8 FF FE 22 FF FF FF 69 FF 
   0.215941 1  08FFFBEAx    Rx   d 8 FB 02 0C 01 00 FF FF FF 
   0.216203 2  0CF00400x    Rx   d 8 F0 FF 9E 82 25 FF F4 FF 
   0.216227 1  08FFFBEAx    Rx   d 8 FB 02 16 00 FE FF FF FF 
   0.216481 2  18EFFA00x    Rx   d 8 19 27 3F 93 C3 65 3F 9D 
   0.216522 1  08FFFBEAx    Rx   d 8 FB 02 00 09 01 FF FF FF 
   0.216776 2  18FEF200x    Rx   d 8 23 01 FF FF FF FF FF FF 
   0.216809 1  08FFFBEAx    Rx   d 8 FB 02 12 00 FE FF FF FF 
   0.217055 2  18EFFA00x    Rx   d 8 1A 2C 29 44 E1 7B AE 44 
   0.217088 1  18EFFA00x    Rx   d 8 14 3F 9D 70 A4 00 00 00 
   0.217350 2  18EFFA00x    Rx   d 8 1B C7 A8 00 42 FE CD FD 
   0.217374 1  1CFFFAEAx    Rx   d 8 00 2D 05 FF 00 32 4B 06 
   0.217636 2  18EFFA00x    Rx   d 8 1C 41 0D 78 C9 3D 3C 50 
   0.217653 1  18EFFA00x    Rx   d 8 15 00 3F 56 D1 C9 3B 55 
   0.217923 2  1CFFFAEAx    Rx   d 8 00 2D 05 FF 00 32 4B 06 
   0.217948 1  18EFFA00x    Rx   d 8 16 7A 3F 00 00 00 00 00 
   0.218193 2  18EFFA00x    Rx   d 8 1D 4B 3F 9D 70 A4 3F 9D 
   0.218226 1  18EFFA00x    Rx   d 8 17 00 00 00 43 36 D0 89 
   0.218488 2  18EFFA00x    Rx   d 8 1E 70 61 3F 9D 70 9C 00 
   0.218513 1  18EFFA00x    Rx   d 8 18 43 33 42 46 41 C4 DF 
   0.218791 2  18EFFA00x    Rx   d 8 1F 00 00 00 00 00 00 00 
   0.218800 1  0CEFFF00x    Rx   d 8 64 06 C1 7E 69 85 FF FF 
   0.219086 1  0CF00300x    Rx   d 8 FF FE 22 FF FF FF 69 FF 
   0.219086 2  18EFFA00x    Rx   d 8 20 C0 22 A9 62 C1 C8 00 
   0.219373 1  18FFFE31x    Rx   d 8 FD FB FB FB FB FF FF FF 
   0.219381 2  18EFFA00x    Rx   d 8 21 00 C1 94 CB D2 40 C9 
   0.219652 1  0CF00400x    Rx   d 8 F0 FF 9E 82 25 FF F4 FF 
   0.219701 2  18EFFA00x    Rx   d 8 22 CF EA 00 00 00 00 00 
   0.219930 1  18EFFA00x    Rx   d 8 19 27 3F 93 C3 65 3F 9D 
   0.220004 2  18EFFA00x    Rx   d 8 23 00 00 00 00 00 00 00 
   0.220233 1  18FEF200x    Rx   d 8 23 01 FF FF FF FF FF FF 
   0.220315 2  18EFFA00x    Rx   d 8 24 40 A0 00 00 00 00 00 
   0.220512 1  18EFFA00x    Rx   d 8 1A 2C 29 44 E1 7B AE 44 
   0.220610 2  18EFFA00x    Rx   d 8 25 00 41 C4 30 F2 41 EE 
   0.220798 1  18EFFA00x    Rx   d 8 1B C7 A8 00 42 FE CD FD 
   0.220897 2  18EFFA00x    Rx   d 8 26 14 2E 42 D5 BF 88 3F 
   0.221077 1  18EFFA00x    Rx   d 8 1C 41 0D 78 C9 3D 3C 50 
   0.221184 2  18EFFA00x    Rx   d 8 27 01 06 25 42 DE 38 52 
   0.221356 1  08FFFF26x    Rx   d 8 E1 DF E8 63 00 64 FF 22 
   0.221478 2  18EFFA00x    Rx   d 8 28 41 79 00 00 43 AF 99 
   0.221634 1  18EFFA00x    Rx   d 8 1D 4B 3F 9D 70 A4 3F 9D 
   0.221757 2  08FFFF26x    Rx   d 8 E1 DF E8 63 00 64 FF 22 
   0.221913 1  0CFFFF26x    Rx   d 8 51 03 02 1E 09 05 07 04 
   0.222035 2  18EFFA00x    Rx   d 8 29 70 43 33 20 00 43 43 
   0.222191 1  18EFFA00x    Rx   d 8 1E 70 61 3F 9D 70 9C 00 
   0.222330 2  18EFFA00x    Rx   d 8 2A 98 00 3E EA 60 DB 43 
   0.222470 1  0CFEE826x    Rx   d 8 50 5C 03 00 81 64 CE 53 
   0.222617 2  18EFFA00x    Rx   d 8 2B 46 0A E6 43 61 ED 18 
   0.222765 1  18EFFA00x    Rx   d 8 1F 00 00 00 00 00 00 00 
   0.222887 2  0CFEE826x    Rx   d 8 50 5C 03 00 81 64 CE 53 
   0.223027 1  18FEF326x    Rx   d 8 D0 A9 EA 95 53 29 49 47 
   0.223182 2  18EFFA00x    Rx   d 8 2C 00 00 00 00 00 00 00 
   0.223313 1  18EFFA00x    Rx   d 8 20 C0 22 A9 62 C1 C8 00 
   0.223485 2  18EFFA00x    Rx   d 8 2D 00 01 00 00 00 3D 39 
   0.223592 1  18FEE826x    Rx   d 8 50 5C 03 00 81 64 CE 53 
   0.223772 2  18EFFA00x    Rx   d 8 2E 24 CD 00 00 00 00 41 
   0.223870 1  18EFFA00x    Rx   d 8 21 00 C1 94 CB D2 40 C9 
   0.224051 2  18FEE826x    Rx   d 8 50 5C 03 00 81 64 CE 53 
   0.224141 1  18FFFF26x    Rx   d 8 53 0D D5 5A 10 55 41 54 
   0.224337 2  18EFFA00x    Rx   d 8 2F B3 FF 21 42 00 3F 61 
   0.224428 1  18EFFA00x    Rx   d 8 22 CF EA 00 00 00 00 00 
   0.224624 2  18EFFA00x    Rx   d 8 30 42 82 AE B6 41 9D 39 
   0.224714 1  1CFFFA26x    Rx   d 8 20 20 E8 63 00 7D FF FF 
   0.224919 2  18EFFA00x    Rx   d 8 31 9C 42 94 1F F7 41 9D 
   0.225009 1  18EFFA00x    Rx   d 8 23 00 00 00 00 00 00 00 
   0.225206 2  1CFFFA26x    Rx   d 8 20 20 E8 63 00 7D FF FF 
   0.225304 1  18EFFA00x    Rx   d 8 24 40 A0 00 00 00 00 00 
   0.225484 2  0CF00400x    Rx   d 8 F0 FF 9E 80 25 FF F4 FF 
   0.225599 1  0CADFF26x    Rx   d 8 FF FF FC FF FF FF FF FF 
   0.225763 2  18EFFA00x    Rx   d 8 32 1C 0B 43 5E 38 52 3F 
   0.225878 1  18EFFA00x    Rx   d 8 25 00 41 C4 30 F2 41 EE 
   0.226050 2  0CADFF26x    Rx   d 8 FF FF FC FF FF FF FF FF 
   0.226148 1  18FFF426x    Rx   d 8 64 2A 46 30 00 FA 72 23 
   0.226336 2  18EFFA00x    Rx   d 8 33 CF 86 23 40 10 7F CB 
   0.226426 1  18EFFA00x    Rx   d 8 26 14 2E 42 D5 BF 88 3F 
   0.226623 2  18F00F00x    Rx   d 8 43 F9 00 00 FF FF FF FF 
   0.226705 1  18EFFA00x    Rx   d 8 27 01 06 25 42 DE 38 52 
   0.226910 2  18EFFA00x    Rx   d 8 34 00 00 00 00 43 61 ED 
   0.227000 1  18EFFA00x    Rx   d 8 28 41 79 00 00 43 AF 99 
   0.227196 2  18FD9B00x    Rx   d 8 37 82 FF FF FF F3 82 FF 
   0.227278 1  18EFFA00x    Rx   d 8 29 70 43 33 20 00 43 43 
   0.227483 2  18EFFA00x    Rx   d 8 35 18 00 00 00 00 43 CF 
   0.227557 1  18EFFA00x    Rx   d 8 2A 98 00 3E EA 60 DB 43 
   0.227778 2  18FFF413x    Rx   d 8 95 FF FF FF FF FF FF FF 
   0.227852 1  0CFFFA26x    Rx   d 8 01 45 FF FF FF FF FF FF 
   0.228065 2  18EFFA00x    Rx   d 8 36 80 80 00 00 00 00 3E 
   0.228122 1  18EFFA00x    Rx   d 8 2B 46 0A E6 43 61 ED 18 
   0.228343 2  18FFF426x    Rx   d 8 64 2A 46 30 00 FA 72 23 
   0.228425 1  18EFFA00x    Rx   d 8 2C 00 00 00 00 00 00 00 
   0.228622 2  18EFFA00x    Rx   d 8 37 56 85 32 41 70 00 00 
   0.228712 1  18EFFA00x    Rx   d 8 2D 00 01 00 00 00 3D 39 
   0.228917 2  18EFFA00x    Rx   d 8 38 3E 35 72 CA 44 60 C6 
   0.228999 1  18EFFA00x    Rx   d 8 2E 24 CD 00 00 00 00 41 
   0.229195 2  18EFFA00x    Rx   d 8 39 8D 3E A6 66 66 41 FB 
   0.229285 1  18EFFA00x    Rx   d 8 2F B3 FF 21 42 00 3F 61 
   0.229482 2  08EFFF03x    Rx   d 8 64 61 40 2F 1F 0F FF FF 
   0.229572 1  18EFFA00x    Rx   d 8 30 42 82 AE B6 41 9D 39 
   0.229777 2  18EFFA00x    Rx   d 8 3A 8D 80 00 01 00 01 01 
   0.229851 1  18EFFA00x    Rx   d 8 31 9C 42 94 1F F7 41 9D 
   0.230080 2  18EFFA00x    Rx   d 8 3B 00 01 00 01 00 00 00 
   0.230137 1  1CFFFAEBx    Rx   d 8 00 2D 04 19 10 FF FF FF 
   0.230400 2  18EFFA00x    Rx   d 8 3C 00 00 01 00 07 01 01 
   0.230416 1  0CF00400x    Rx   d 8 F0 FF 9E 80 25 FF F4 FF 
   0.230678 2  18EFFA13x    Rx   d 8 AD 12 ED D8 ED D8 00 00 
   0.230711 1  18FFFA26x    Rx   d 8 07 00 00 00 27 06 80 00 
   0.230973 2  18EFFA00x    Rx   d 8 3D 00 00 00 00 00 00 00 
   0.230998 1  08FFFBEBx    Rx   d 8 FB 02 01 54 02 FF FF FF 
   0.231260 2  1CFFFAEBx    Rx   d 8 00 2D 04 19 10 FF FF FF 
   0.231292 1  08FFFBEBx    Rx   d 8 FB 02 02 0C 00 FF FF FF 
   0.231555 2  18EFFA00x    Rx   d 8 3E 00 00 01 00 01 00 01 
   0.231579 1  08FFFBEBx    Rx   d 8 FB 02 03 08 00 FF FF FF 
   0.231858 2  18EFFA00x    Rx   d 8 3F 01 01 00 00 00 00 01 
   0.231874 1  08FFFBEBx    Rx   d 8 FB 02 05 DC 00 FF FF FF 
   0.232153 1  10FFFF31x    Rx   d 8 EA FF 2A 62 1F 4E 9B 0F 
   0.232153 2  18EFFA00x    Rx   d 8 40 7F FF 00 00 7F FF 00 
   0.232439 1  08FFFBEBx    Rx   d 8 FB 02 07 0A 00 FF FF FF 
   0.232464 2  18EFFA00x    Rx   d 8 41 00 7F FF 00 00 00 00 
   0.232710 1  18EFFA00x    Rx   d 8 32 1C 0B 43 5E 38 52 3F 
   0.232742 2  18EFFA00x    Rx   d 8 42 64 14 44 18 4E FD 00 
   0.233005 1  08FFFBEBx    Rx   d 8 FB 02 08 3C 00 FF FF FF 
   0.233046 2  18EFFA00x    Rx   d 8 43 00 01 90 00 00 00 41 
   0.233283 1  0CF0045Bx    Rx   d 8 F0 FF 9E 80 25 FF F4 FF 
   0.233324 2  0CF0045Bx    Rx   d 8 F0 FF 9E 80 25 FF F4 FF 
   0.233570 1  08FFFBEBx    Rx   d 8 FB 02 04 1C 00 FF FF FF 
   0.233611 2  18EFFA00x    Rx   d 8 44 00 00 00 00 00 00 00 
   0.233857 1  18EFFA00x    Rx   d 8 33 CF 86 23 40 10 7F CB 
   0.233914 2  18EFFA00x    Rx   d 8 45 00 00 00 00 00 00 00 
   0.234151 1  08FFFBEBx    Rx   d 8 FB 02 17 00 00 FF FF FF 
   0.234209 2  18EFFA00x    Rx   d 8 46 00 00 00 00 00 00 44 
   0.234438 1  18F00F00x    Rx   d 8 43 F9 00 00 FF FF FF FF 
   0.234496 2  18EFFA00x    Rx   d 8 47 18 4E FD 3F C5 2A 6C 
   0.234725 1  08FFFBEBx    Rx   d 8 FB 02 09 00 00 FF FF FF 
   0.234782 2  1CFFFA5Bx    Rx   d 8 00 2D 06 FF FF FF FF FF 
   0.235012 1  18EFFA00x    Rx   d 8 34 00 00 00 00 43 61 ED 
   0.235061 2  18EFFA00x    Rx   d 8 48 3F DB A5 E3 44 17 EC 
   0.235298 1  0CFF18EBx    Rx   d 8 C0 11 00 06 40 07 04 FF 
   0.235339 2  04EF0006x    Rx   d 8 64 15 15 F3 95 2E C0 12 
   0.235585 1  18FD9B00x    Rx   d 8 37 82 FF FF FF F3 82 FF 
   0.235626 2  0CEFFF00x    Rx   d 8 64 06 C8 7E 69 86 FF FF 
   0.235872 1  1CFFFA5Bx    Rx   d 8 00 2D 06 FF FF FF FF FF 
   0.235913 2  0CF00300x    Rx   d 8 FF FE 22 FF FF FF 69 FF 
   0.236158 1  18EFFA00x    Rx   d 8 35 18 00 00 00 00 43 CF 
   0.236191 2  0CF00400x    Rx   d 8 F0 FF 9E 80 25 FF F4 FF 
   0.236453 1  18FECA5Bx    Rx   d 8 00 FF 00 00 00 00 FF FF 
   0.236478 2  18EF0600x    Rx   d 8 64 0E 5A 00 FF FF FF FF 
   0.236748 1  18EFFA00x    Rx   d 8 36 80 80 00 00 00 00 3E 
   0.236756 2  18EFFA00x    Rx   d 8 49 68 3C 49 1D 15 3F 65 
   0.237035 1  1CFFFA79x    Rx   d 8 00 2D 03 FF FF FF FF FF 
   0.237051 2  18EFFF00x    Rx   d 8 F8 21 04 00 00 00 00 00 
   0.237322 1  18EFFA00x    Rx   d 8 37 56 85 32 41 70 00 00 
   0.237338 2  18EFFA00x    Rx   d 8 4A CC 00 01 01 00 01 00 
   0.237592 1  14EFFFEBx    Rx   d 8 64 4A 56 02 85 89 FF FF 
   0.237625 2  18FECA5Bx    Rx   d 8 00 FF 00 00 00 00 FF FF 
   0.237879 1  18EFFA00x    Rx   d 8 38 3E 35 72 CA 44 60 C6 
   0.237920 2  18EFFA00x    Rx   d 8 4B 00 00 00 00 00 00 00 
   0.238157 1  18EFFA00x    Rx   d 8 39 8D 3E A6 66 66 41 FB 
   0.238215 2  1CFFFA79x    Rx   d 8 00 2D 03 FF FF FF FF FF 
   0.238452 1  18EFFA00x    Rx   d 8 3A 8D 80 00 01 00 01 01 
   0.238501 2  18EFFA00x    Rx   d 8 4C 00 00 00 00 00 00 02 
   0.238739 1  18EFFA00x    Rx   d 8 3B 00 01 00 01 00 00 00 
   0.238804 2  18EFFA00x    Rx   d 8 4D 29 00 00 00 00 00 00 
   0.239034 1  18EFFA00x    Rx   d 8 3C 00 00 01 00 07 01 01 
   0.239108 2  18EFFA00x    Rx   d 8 4E 00 00 00 00 00 00 00 
   0.239337 1  18EFFA00x    Rx   d 8 3D 00 00 00 00 00 00 00 
   0.239411 2  18EFFA00x    Rx   d 8 4F 00 00 00 00 00 00 00 
   0.239632 1  18EFFA00x    Rx   d 8 3E 00 00 01 00 01 00 01 
   0.239714 2  18EFFA00x    Rx   d 8 50 00 00 00 00 3F 80 00 
   0.239927 1  18EFFA00x    Rx   d 8 3F 01 01 00 00 00 00 01 
   0.240017 2  18EFFA00x    Rx   d 8 51 00 00 00 00 00 00 00 
   0.240230 1  18EFFA00x    Rx   d 8 40 7F FF 00 00 7F FF 00 
   0.240328 2  18EFFA00x    Rx   d 8 52 00 00 00 00 00 00 00 
   0.240525 1  18EFFA00x    Rx   d 8 41 00 7F FF 00 00 00 00 
   0.240631 2  18EFFA00x    Rx   d 8 53 00 00 00 00 00 00 00 
   0.240812 1  0CFFF331x    Rx   d 8 31 C3 24 FF FF FF FF F8 
   0.240943 2  18EFFA00x    Rx   d 8 54 00 00 00 00 3F 80 00 
   0.241090 1  18EFFA00x    Rx   d 8 42 64 14 44 18 4E FD 00 
   0.241229 2  0CFFF331x    Rx   d 8 31 C3 24 FF FF FF FF F8 
   0.241385 1  18EFFA00x    Rx   d 8 43 00 01 90 00 00 00 41 
   0.241516 2  18EFFA00x    Rx   d 8 55 00 00 00 00 00 00 00 
   0.241680 1  18EFFA00x    Rx   d 8 44 00 00 00 00 00 00 00 
   0.241827 2  18EFFA00x    Rx   d 8 56 00 00 00 00 00 00 00 
   0.241975 1  18EFFA00x    Rx   d 8 45 00 00 00 00 00 00 00 
   0.242130 2  18EFFA00x    Rx   d 8 57 00 00 00 00 00 00 00 
   0.242262 1  18EFFA00x    Rx   d 8 46 00 00 00 00 00 00 44 
   0.242434 2  18EFFA00x    Rx   d 8 58 00 00 00 00 00 00 00 
   0.242556 1  1CEFFAEAx    Rx   d 8 AD 01 00 00 00 00 FF FF 
   0.242737 2  18EFFA00x    Rx   d 8 59 00 00 00 00 00 3F 80 
   0.242827 1  18EFFA00x    Rx   d 8 47 18 4E FD 3F C5 2A 6C 
   0.243040 2  18EFFA00x    Rx   d 8 5A 00 00 00 00 00 00 00 
   0.243105 1  1CEFFAEAx    Rx   d 8 AD 02 00 00 80 00 64 64 
   0.243318 2  18EFFFF2x    Rx   d 8 64 58 FC F4 80 FF C3 24 
   0.243384 1  14FFFA5Bx    Rx   d 8 00 2E 20 31 10 A4 10 A4 
   0.243605 2  18EFFA00x    Rx   d 8 5B 00 00 00 00 00 00 00 
   0.243662 1  18EFFA00x    Rx   d 8 48 3F DB A5 E3 44 17 EC 
   0.243892 2  18EFFFF2x    Rx   d 8 FC 04 B6 03 64 00 FF FF 
   0.243957 1  10FF145Bx    Rx   d 8 FF FF FF FF FF FF FF FF 
   0.244187 2  18EFFA00x    Rx   d 8 5C 00 00 00 00 00 00 00 
   0.244236 1  0CEFFF00x    Rx   d 8 64 06 C8 7E 69 86 FF FF 
   0.244490 2  18EFFA00x    Rx   d 8 5D 00 00 00 00 00 00 00 
   0.244514 1  1CEFFAEAx    Rx   d 8 AD 03 00 20 3D 4C 4C 73 
   0.244793 2  18EFFA00x    Rx   d 8 5E 00 00 00 00 00 00 00 
   0.244801 1  0CF00300x    Rx   d 8 FF FE 22 FF FF FF 69 FF 
   0.245080 1  1CEFFAEAx    Rx   d 8 AD 04 91 A8 00 10 1C 64 
   0.245096 2  18EFFA00x    Rx   d 8 5F 00 00 00 00 00 00 00 
   0.245358 1  0CF00400x    Rx   d 8 F0 FF 9E 80 25 FF F4 FF 
   0.245563 2  18EFFA00x    Rx   d 8 60 00 00 00 00 00 00 00 
   0.245628 1  1CEFFAEAx    Rx   d 8 AD 05 42 66 80 A8 44 14 
   0.245841 2  0CF00400x    Rx   d 8 F0 FF 9E 80 25 FF F4 FF 
   0.245907 1  18EFFA00x    Rx   d 8 49 68 3C 49 1D 15 3F 65 
   0.246128 2  0CF02300x    Rx   d 8 00 00 F2 FF FF 70 FF FF 
   0.246177 1  1CEFFAEAx    Rx   d 8 AD 06 6F 2A 45 56 B6 00 
   0.246423 2  18EFFA00x    Rx   d 8 61 00 00 00 00 00 3F 7D 
   0.246472 1  18EFFF00x    Rx   d 8 F8 21 04 00 00 00 00 00 
   0.246718 2  18EFFA00x    Rx   d 8 62 70 A4 00 00 01 00 01 
   0.246759 1  1CEFFAEAx    Rx   d 8 AD 07 00 00 00 00 00 00 
   0.247046 1  18EFFA00x    Rx   d 8 4A CC 00 01 01 00 01 00 
   0.247054 2  18EFFA00x    Rx   d 8 63 00 01 00 00 00 01 00 
   0.247341 1  18EFFA00x    Rx   d 8 4B 00 00 00 00 00 00 00 
   0.247357 2  18EFFA00x    Rx   d 8 64 00 01 00 00 00 00 08 
   0.247635 1  18EFFA00x    Rx   d 8 4C 00 00 00 00 00 00 02 
   0.247660 2  18EFFA00x    Rx   d 8 65 88 00 00 08 88 00 00 
   0.247922 1  18EFFA00x    Rx   d 8 4D 29 00 00 00 00 00 00 
   0.247963 2  18EFFA00x    Rx   d 8 66 7F FF 00 00 7F FF 00 
   0.248217 1  18EFFA00x    Rx   d 8 4E 00 00 00 00 00 00 00 
   0.248266 2  18EFFA00x    Rx   d 8 67 00 7F FF 00 00 7F FF 
   0.248512 1  18EFFA00x    Rx   d 8 4F 00 00 00 00 00 00 00 
   0.248561 2  18EFFA00x    Rx   d 8 68 00 00 00 00 3F 5D 5C 
   0.248807 1  18EFFA00x    Rx   d 8 50 00 00 00 00 3F 80 00 
   0.248864 2  18EFFA00x    Rx   d 8 69 00 01 00 31 32 00 00 
   0.249102 1  18EFFA00x    Rx   d 8 51 00 00 00 00 00 00 00 
   0.249167 2  18EFFA00x    Rx   d 8 6A 00 00 00 00 00 00 00 
   0.249397 1  18FFF831x    Rx   d 8 28 11 FF FF FF FF FF FF 
   0.249446 2  18EFFF03x    Rx   d 8 64 62 28 7E FF FF 7E FF 
   0.249692 1  18EFFA00x    Rx   d 8 52 00 00 00 00 00 00 00 
   0.249741 2  18EFFA00x    Rx   d 8 6B 00 00 00 02 02 02 02 
   0.249987 1  1CFFF831x    Rx   d 8 85 FB FB FF FF FF FF FC 
   0.250036 2  18EFFA00x    Rx   d 8 6C 02 02 02 02 02 02 02 
   0.250273 1  18EFFA00x    Rx   d 8 53 00 00 00 00 00 00 00 
   0.250331 2  18EFFA00x    Rx   d 8 6D 02 02 02 02 02 02 00 
   0.250568 1  1CFFFA64x    Rx   d 8 00 2D 04 FF FF FF FF FF 
   0.250634 2  18EFFA00x    Rx   d 8 6E 02 02 02 00 00 00 02 
   0.250863 1  18EFFA00x    Rx   d 8 54 00 00 00 00 3F 80 00 
   0.250929 2  1CFFFA64x    Rx   d 8 00 2D 04 FF FF FF FF FF 
   0.251150 1  1CFFFA26x    Rx   d 8 20 20 E8 63 00 7D FF FF 
   0.251207 2  18EFFA00x    Rx   d 8 6F 02 02 02 02 02 02 02 
   0.251445 1  18EFFA00x    Rx   d 8 55 00 00 00 00 00 00 00 
   0.251494 2  1CFFFA26x    Rx   d 8 20 20 E8 63 00 7D FF FF 
   0.251740 1  18EFFA00x    Rx   d 8 56 00 00 00 00 00 00 00 
   0.251781 2  18EFFA00x    Rx   d 8 70 00 02 00 02 02 02 02 
   0.252035 1  18EFFA00x    Rx   d 8 57 00 00 00 00 00 00 00 
   0.252076 2  18EFFA00x    Rx   d 8 71 02 02 02 02 02 02 02 
   0.252329 1  18EFFA00x    Rx   d 8 58 00 00 00 00 00 00 00 
   0.252370 2  18EFFA00x    Rx   d 8 72 02 02 00 02 00 02 02 
   0.252624 1  18EFFA00x    Rx   d 8 59 00 00 00 00 00 3F 80 
   0.252674 2  18EFFA00x    Rx   d 8 73 00 00 00 00 00 00 02 
   0.252911 1  18EFFFF2x    Rx   d 8 FC 04 B6 03 64 00 FF FF 
   0.252968 2  18EFFA00x    Rx   d 8 74 00 00 00 00 00 00 00 
   0.253181 1  0CF0045Bx    Rx   d 8 F0 FF 9E 80 25 FF F4 FF 
   0.253239 2  0CF0045Bx    Rx   d 8 F0 FF 9E 80 25 FF F4 FF 
   0.253468 1  14FFFB5Bx    Rx   d 8 01 15 68 42 FF FF FF FF 
   0.253534 2  18EFFA00x    Rx   d 8 75 00 01 00 01 01 00 00 
   0.253763 1  18EFFA00x    Rx   d 8 5A 00 00 00 00 00 00 00 
   0.253829 2  18EFFF06x    Rx   d 8 F8 20 F2 FF FF FF FF FF 
   0.254058 1  18EFFA00x    Rx   d 8 5B 00 00 00 00 00 00 00 
   0.254115 2  18EFFA00x    Rx   d 8 76 00 00 00 00 00 00 00 
   0.254353 1  18EFFA00x    Rx   d 8 5C 00 00 00 00 00 00 00 
   0.254427 2  18EFFA00x    Rx   d 8 77 00 00 00 00 00 00 00 
   0.254640 1  08FFFBEAx    Rx   d 8 FB 02 00 09 01 FF FF FF 
   0.254730 2  18EFFA00x    Rx   d 8 78 00 00 00 00 00 00 00 
   0.254935 1  18EFFA00x    Rx   d 8 5D 00 00 00 00 00 00 00 
   0.255041 2  18EFFA00x    Rx   d 8 79 00 00 00 00 00 00 00 
   0.255229 1  18EFFA00x    Rx   d 8 5E 00 00 00 00 00 00 00 
   0.255311 2  04EF0006x    Rx   d 8 64 15 16 F3 95 2E C0 12 
   0.255524 1  18EFFA00x    Rx   d 8 5F 00 00 00 00 00 00 00 
   0.255606 2  18EFFA00x    Rx   d 8 7A 00 00 00 00 00 00 00 
   0.255827 1  18EFFA00x    Rx   d 8 60 00 00 00 00 00 00 00 
   0.255885 2  0CEFFF00x    Rx   d 8 64 06 C9 7E 69 86 FF FF 
   0.256106 1  0CF00400x    Rx   d 8 F0 FF 9E 80 25 FF F4 FF 
   0.256172 2  0CF00300x    Rx   d 8 FF FE 22 FF FF FF 69 FF 
   0.256393 1  0CF02300x    Rx   d 8 00 00 F2 FF FF 70 FF FF 
   0.256450 2  0CF00400x    Rx   d 8 F0 FF 9E 88 25 FF F4 FF 
   0.256688 1  18EFFA00x    Rx   d 8 61 00 00 00 00 00 3F 7D 
   0.256745 2  18EFFA00x    Rx   d 8 7B 00 00 00 00 00 00 00 
   0.256991 1  18EFFA00x    Rx   d 8 62 70 A4 00 00 01 00 01 
   0.257024 2  18EFFF00x    Rx   d 8 64 10 0F 0F F8 09 75 BD 
   0.257286 1  18EFFA00x    Rx   d 8 63 00 01 00 00 00 01 00 
   0.257318 2  18EFFA00x    Rx   d 8 7C 00 00 00 00 00 00 00 
   0.257581 1  18EFFA00x    Rx   d 8 64 00 01 00 00 00 00 08 
   0.257613 2  18F00E00x    Rx   d 8 02 FA 00 00 FF FF FF FF 
   0.257875 1  18EFFA00x    Rx   d 8 65 88 00 00 08 88 00 00 
   0.257908 2  18EFFA00x    Rx   d 8 7D 00 00 00 00 00 00 00 
   0.258170 1  18EFFA00x    Rx   d 8 66 7F FF 00 00 7F FF 00 
   0.258187 2  18FEF700x    Rx   d 8 FF FF FF FF 1D 01 1B 01 
   0.258457 1  18EFFA00x    Rx   d 8 67 00 7F FF 00 00 7F FF 
   0.258482 2  18EFFA00x    Rx   d 8 7E 00 00 00 00 00 00 04 
   0.258744 1  18EFFA00x    Rx   d 8 68 00 00 00 00 3F 5D 5C 
   0.258768 2  18FFF4C5x    Rx   d 8 65 0F 00 00 FF 81 F0 FF 
   0.259039 1  18EFFA00x    Rx   d 8 69 00 01 00 31 32 00 00 
   0.259055 2  18EFFA00x    Rx   d 8 7F 00 00 00 00 00 00 00 
   0.259334 1  18EFFA00x    Rx   d 8 6A 00 00 00 00 00 00 00 
   0.259358 2  08FFFA03x    Rx   d 8 00 23 F3 FF FF FF FF FF 
   0.259620 1  18EFFA00x    Rx   d 8 6B 00 00 00 02 02 02 02 
   0.259645 2  18EFFA00x    Rx   d 8 80 00 00 6B 6B 00 00 00 
   0.259915 1  18EFFA00x    Rx   d 8 6C 02 02 02 02 02 02 02 
   0.259948 2  18EFFA00x    Rx   d 8 81 00 00 00 00 00 00 00 
   0.260202 1  18EFFA00x    Rx   d 8 6D 02 02 02 02 02 02 00 
   0.260251 2  18EFFA00x    Rx   d 8 82 00 00 44 60 9C 1F 00 
   0.260489 1  18FFFA26x    Rx   d 8 00 31 00 FD FF FF FF FF 
   0.260554 2  18EFFA00x    Rx   d 8 83 00 00 00 01 01 00 01 
   0.260767 1  0CFF1B31x    Rx   d 8 27 7B C1 00 80 D1 00 00 
   0.260866 2  18EFFA00x    Rx   d 8 84 00 00 00 00 00 14 01 
   0.261062 1  18EFFA00x    Rx   d 8 6E 02 02 02 00 00 00 02 
   0.261144 2  0CFF1B31x    Rx   d 8 27 7B C1 00 80 D1 00 00 
   0.261341 1  18FFF886x    Rx   d 8 9B 00 7D 00 64 80 F0 FF 
   0.261431 2  18EFFA00x    Rx   d 8 85 5F 00 00 00 00 41 86 
   0.261619 1  18EFFA00x    Rx   d 8 6F 02 02 02 02 02 02 02 
   0.261701 2  198BF2BFx    Rx   d 8 64 10 E5 37 EC 37 E5 37 
   0.261914 1  18FFFF31x    Rx   d 8 09 FF FF FF FF F3 FF FF 
   0.261988 2  18EFFA00x    Rx   d 8 86 80 00 41 50 00 00 42 
   0.262201 1  18EFFA00x    Rx   d 8 70 00 02 00 02 02 02 02 
   0.262266 2  198BF2BFx    Rx   d 8 64 11 1C 38 1C 38 6A 35 
   0.262488 1  18EFFA00x    Rx   d 8 71 02 02 02 02 02 02 02 
   0.262545 2  18EFFA00x    Rx   d 8 87 63 40 00 42 2F 40 00 
   0.262774 1  18EFFA00x    Rx   d 8 72 02 02 00 02 00 02 02 
   0.262823 2  198BF2BFx    Rx   d 8 64 12 43 35 80 35 FF FF 
   0.263069 1  18EFFA00x    Rx   d 8 73 00 00 00 00 00 00 02 
   0.263110 2  18EFFA00x    Rx   d 8 88 00 00 00 00 00 00 00 
   0.263364 1  18EFFF06x    Rx   d 8 F8 20 F2 FF FF FF FF FF 
   0.263405 2  1CFFFABFx    Rx   d 8 00 2D 00 06 06 06 06 06 
   0.263659 1  18EFFA00x    Rx   d 8 74 00 00 00 00 00 00 00 
   0.263692 2  18EFFA00x    Rx   d 8 89 00 00 00 00 00 00 00 
   0.263954 1  18EFFA00x    Rx   d 8 75 00 01 00 01 01 00 00 
   0.264003 2  18EFFA00x    Rx   d 8 8A 00 00 00 00 00 00 00 
   0.264249 1  18EFFA00x    Rx   d 8 76 00 00 00 00 00 00 00 
   0.264306 2  18EFFA00x    Rx   d 8 8B 00 00 00 00 00 00 00 
   0.264544 1  18EFFA00x    Rx   d 8 77 00 00 00 00 00 00 00 
   0.264617 2  18EFFA00x    Rx   d 8 8C 00 00 00 00 00 00 00 
   0.264839 1  18EFFA00x    Rx   d 8 78 00 00 00 00 00 00 00 
   0.264921 2  18EFFA00x    Rx   d 8 8D 00 00 00 00 01 00 00 
   0.265142 1  18EFFA00x    Rx   d 8 79 00 00 00 00 00 00 00 
   0.265216 2  18EFFA00x    Rx   d 8 8E 00 01 00 00 00 01 00 
   0.265437 1  18EFFA00x    Rx   d 8 7A 00 00 00 00 00 00 00 
   0.265494 2  0CF00400x    Rx   d 8 F0 FF 9E 8C 25 FF F4 FF 
   0.265723 1  0CEFFF00x    Rx   d 8 64 06 C9 7E 69 86 FF FF 
   0.265781 2  0CACFF13x    Rx   d 8 32 7D 14 1F C0 FF FF FF 
   0.266010 1  0CF00300x    Rx   d 8 FF FE 22 FF FF FF 69 FF 
   0.266067 2  18EFFA00x    Rx   d 8 8F 00 00 01 00 00 00 01 
   0.266289 1  0CF00400x    Rx   d 8 F0 FF 9E 88 25 FF F4 FF 
   0.266362 2  18FFF413x    Rx   d 8 63 FA 03 00 20 E1 FF FF 
   0.266584 1  18EFFA00x    Rx   d 8 7B 00 00 00 00 00 00 00 
   0.266657 2  18EFFA00x    Rx   d 8 90 00 00 00 00 00 00 00 
   0.266862 1  18EFFF00x    Rx   d 8 64 10 0F 0F F8 09 75 BD 
   0.266960 2  18EFFA00x    Rx   d 8 91 00 00 00 00 00 3F 80 
   0.267165 1  18EFFA00x    Rx   d 8 7C 00 00 00 00 00 00 00 
   0.267264 2  18EFFA00x    Rx   d 8 92 00 00 00 00 00 00 00 
   0.267460 1  18F00E00x    Rx   d 8 02 FA 00 00 FF FF FF FF 
   0.267558 2  18EFFA00x    Rx   d 8 93 00 00 00 42 5A 00 00 
   0.267755 1  18EFFA00x    Rx   d 8 7D 00 00 00 00 00 00 00 
   0.267853 2  18EFFA00x    Rx   d 8 94 00 00 00 00 3E 51 CE 
   0.268050 1  18EFFA00x    Rx   d 8 7E 00 00 00 00 00 00 04 
   0.268132 2  18EFFA00x    Rx   d 8 95 D0 3D 2C 45 11 3E 55 
   0.268345 1  18EFFA00x    Rx   d 8 7F 00 00 00 00 00 00 00 
   0.268419 2  18EFFA00x    Rx   d 8 96 9F 04 43 59 26 B7 45 
   0.268632 1  18EFFA00x    Rx   d 8 80 00 00 6B 6B 00 00 00 
   0.268705 2  18EFFA00x    Rx   d 8 97 A5 6A FB 41 B7 8A 3B 
   0.268935 1  18EFFA00x    Rx   d 8 81 00 00 00 00 00 00 00 
   0.268984 2  18EFFA00x    Rx   d 8 98 42 92 2B DE 42 97 46 
   0.269221 1  18EFFA00x    Rx   d 8 82 00 00 44 60 9C 1F 00 
   0.269262 2  18EFFA00x    Rx   d 8 99 D4 42 CA 71 90 43 17 
   0.269516 1  18EFFA00x    Rx   d 8 83 00 00 00 01 01 00 01 
   0.269549 2  08EFFF03x    Rx   d 8 64 61 40 2F 1F 0F FF FF 
   0.269803 1  18EFFF31x    Rx   d 8 F4 19 FF FF FF FF FF FF 
   0.269828 2  18EFFA00x    Rx   d 8 9A B1 88 42 C4 F0 00 41 
   0.270098 1  18EFFA00x    Rx   d 8 84 00 00 00 00 00 14 01 
   0.270114 2  18EFFA00x    Rx   d 8 9B 3D 0C CD 3F 27 BF 72 
   0.270376 1  1CFFFAEBx    Rx   d 8 00 2D 05 FF 00 19 19 0A 
   0.270516 2  18EFFA00x    Rx   d 8 9C 43 2F 00 19 3F 27 44 
   0.270663 1  18EFFA00x    Rx   d 8 85 5F 00 00 00 00 41 86 
   0.270794 2  18EFFA13x    Rx   d 8 AD 12 ED D8 ED D8 00 00 
   0.270958 1  18EFFA00x    Rx   d 8 86 80 00 41 50 00 00 42 
   0.271065 2  18EFFA00x    Rx   d 8 9D 00 42 B6 E8 76 3D 87 
   0.271237 1  18EFFA00x    Rx   d 8 87 63 40 00 42 2F 40 00 
   0.271343 2  1CFFFAEBx    Rx   d 8 00 2D 05 FF 00 19 19 0A 
   0.271532 1  18EFFA00x    Rx   d 8 88 00 00 00 00 00 00 00 
   0.271622 2  18EFFA00x    Rx   d 8 9E 10 1B 42 EB 71 38 43 
   0.271826 1  1CFFFABFx    Rx   d 8 00 2D 00 06 06 06 06 06 
   0.271900 2  18EFFA00x    Rx   d 8 9F 26 BC 05 42 D5 A8 C4 
   0.272121 1  18EFFA00x    Rx   d 8 89 00 00 00 00 00 00 00 
   0.272179 2  18EFFA00x    Rx   d 8 A0 43 32 36 F4 C2 8E C5 
   0.272416 1  18EFFA00x    Rx   d 8 8A 00 00 00 00 00 00 00 
   0.272482 2  18EFFA00x    Rx   d 8 A1 24 3F 80 00 00 3F 5F 
   0.272719 1  18EFFA00x    Rx   d 8 8B 00 00 00 00 00 00 00 
   0.272769 2  18EFFA00x    Rx   d 8 A2 EA 18 3F C1 52 B8 00 
   0.272990 1  0CF0045Bx    Rx   d 8 F0 FF 9E 8C 25 FF F4 FF 
   0.273047 2  0CF0045Bx    Rx   d 8 F0 FF 9E 8C 25 FF F4 FF 
   0.273285 1  08FFFB26x    Rx   d 8 F9 01 01 80 00 FF FF FF 
   0.273326 2  18EFFA00x    Rx   d 8 A3 88 62 10 00 00 03 20 
   0.273563 1  0CFF18EBx    Rx   d 8 C0 29 00 03 40 07 05 FF 
   0.273620 2  08FFFB26x    Rx   d 8 F9 01 01 80 00 FF FF FF 
   0.273858 1  18EFFA00x    Rx   d 8 8C 00 00 00 00 00 00 00 
   0.273899 2  18EFFA00x    Rx   d 8 A4 3F 7F 70 84 3F 6F 14 
   0.274153 1  18EFFA00x    Rx   d 8 8D 00 00 00 00 01 00 00 
   0.274186 2  18EFFA00x    Rx   d 8 A5 B6 3F 80 00 00 3F A7 
   0.274440 1  18EFFA00x    Rx   d 8 8E 00 01 00 00 00 01 00 
   0.274472 2  18EFFA00x    Rx   d 8 A6 D0 9E 3F 66 66 66 00 
   0.274735 1  1CFFFA5Bx    Rx   d 8 00 2D 07 FF FF FF FF FF 
   0.274767 2  1CFFFA5Bx    Rx   d 8 00 2D 07 FF FF FF FF FF 
   0.275013 1  0CF00400x    Rx   d 8 F0 FF 9E 8C 25 FF F4 FF 
   0.275054 2  18EFFA00x    Rx   d 8 A7 00 00 00 3F 4D AB 3B 
   0.275300 1  0CACFF13x    Rx   d 8 32 7D 14 1F C0 FF FF FF 
   0.275324 2  04EF0006x    Rx   d 8 64 15 17 F3 9A 2E C0 12 
   0.275611 1  18EFFA00x    Rx   d 8 8F 00 00 01 00 00 00 01 
   0.275611 2  0CEFFF00x    Rx   d 8 64 06 C3 7E 69 85 FF FF 
   0.275898 2  0CF00300x    Rx   d 8 FF FE 21 FF FF FF 69 FF 
   0.275898 1  18FFF413x    Rx   d 8 63 FA 03 00 20 E1 FF FF 
   0.276176 2  0CF00400x    Rx   d 8 F0 FF 9E 90 25 FF F4 FF 
   0.276193 1  1CFFFA79x    Rx   d 8 00 2D 04 FF FF FF FF FF 
   0.276455 2  18EFFA00x    Rx   d 8 A8 40 53 50 90 3F 7F FF 
   0.276488 1  18EFFA00x    Rx   d 8 90 00 00 00 00 00 00 00 
   0.276750 2  18F00F00x    Rx   d 8 43 F9 00 00 FF FF FF FF 
   0.276783 1  18EFFA00x    Rx   d 8 91 00 00 00 00 00 3F 80 
   0.277028 2  18EFFA00x    Rx   d 8 A9 FF 41 AD 91 5E 00 00 
   0.277078 1  18EFFA00x    Rx   d 8 92 00 00 00 00 00 00 00 
   0.277315 2  18FFF413x    Rx   d 8 95 FF FF FF FF FF FF FF 
   0.277364 1  08EFFFEBx    Rx   d 8 F8 0B DC 00 99 7F F1 00 
   0.277602 2  18EFFA00x    Rx   d 8 AA C0 01 04 20 00 1C 3E 
   0.277651 1  18EFFA00x    Rx   d 8 93 00 00 00 42 5A 00 00 
   0.277880 2  18FFF413x    Rx   d 8 5F 3B 62 C2 99 58 2F FF 
   0.277938 1  18EFFA00x    Rx   d 8 94 00 00 00 00 3E 51 CE 
   0.278151 2  18EFFA00x    Rx   d 8 AB 3F 5D 23 3E 40 27 77 
   0.278216 1  18EFFA00x    Rx   d 8 95 D0 3D 2C 45 11 3E 55 
   0.278446 2  1CFFFA79x    Rx   d 8 00 2D 04 FF FF FF FF FF 
   0.278495 1  18EFFA00x    Rx   d 8 96 9F 04 43 59 26 B7 45 
   0.278716 2  18EFFA00x    Rx   d 8 AC 3D B3 98 5F 3D B3 9D 
   0.278773 1  18EFFA00x    Rx   d 8 97 A5 6A FB 41 B7 8A 3B 
   0.279003 2  08EFFFEBx    Rx   d 8 F8 0B DC 00 99 7F F1 00 
   0.279044 1  18EFFA00x    Rx   d 8 98 42 92 2B DE 42 97 46 
   0.279281 2  18EFFA00x    Rx   d 8 AD 4D 3E 99 50 C8 BE 16 
   0.279322 1  18EFFA00x    Rx   d 8 99 D4 42 CA 71 90 43 17 
   0.279568 2  08FEF103x    Rx   d 8 FF 00 00 CF FF FF FF FF 
   0.279601 1  18EFFA00x    Rx   d 8 9A B1 88 42 C4 F0 00 41 
   0.279863 2  08FFFA03x    Rx   d 8 02 8C 88 25 FF FF FF FF 
   0.279879 1  18EFFF31x    Rx   d 8 F1 07 CC CC 00 00 CC EC 
   0.280141 2  18EFFA00x    Rx   d 8 AE 85 4E 3E 0B F1 46 00 
   0.280150 1  18EFFA00x    Rx   d 8 9B 3D 0C CD 3F 27 BF 72 
   0.280436 1  18EFFF31x    Rx   d 8 F0 02 CC 00 30 F0 FF FF 
   0.280444 2  18EFFA00x    Rx   d 8 AF 00 00 00 00 00 00 00 
   0.280715 1  0CFFF331x    Rx   d 8 31 C0 24 FF FF FF FF F8 
   0.280748 2  18EFFA00x    Rx   d 8 B0 00 00 02 00 0B 28 00 
   0.280993 1  18EFFA00x    Rx   d 8 9C 43 2F 00 19 3F 27 44 
   0.281034 2  0CFFF331x    Rx   d 8 31 C0 24 FF FF FF FF F8 
   0.281296 1  18FFF831x    Rx   d 8 30 FF FF FF FF FF FF FF 
   0.281313 2  18EFFA00x    Rx   d 8 B1 00 00 0A 00 86 2E 95 
   0.281567 1  18EFFA00x    Rx   d 8 9D 00 42 B6 E8 76 3D 87 
   0.281608 2  18EFFA00x    Rx   d 8 B2 12 C0 80 00 07 93 02 
   0.281837 1  18EFFA00x    Rx   d 8 9E 10 1B 42 EB 71 38 43 
   0.281911 2  18EFFA00x    Rx   d 8 B3 58 0F EC 03 9C 00 00 
   0.282116 1  18EFFA00x    Rx   d 8 9F 26 BC 05 42 D5 A8 C4 
   0.282206 2  18EFFA00x    Rx   d 8 B4 01 37 34 98 01 9F 0D 
   0.282394 1  18EFFA00x    Rx   d 8 A0 43 32 36 F4 C2 8E C5 
   0.282492 2  18EFFA00x    Rx   d 8 B5 4A 02 AB 01 9B 04 99 
   0.282681 1  18EFFA00x    Rx   d 8 A1 24 3F 80 00 00 3F 5F 
   0.282779 2  18EFFA00x    Rx   d 8 B6 13 61 01 0D 0C 53 00 
   0.282968 1  18EFFA00x    Rx   d 8 A2 EA 18 3F C1 52 B8 00 
   0.283066 2  18EFFFF2x    Rx   d 8 64 58 FC F4 80 FF C0 24 
   0.283254 1  18EFFA00x    Rx   d 8 A3 88 62 10 00 00 03 20 
   0.283344 2  18EFFA00x    Rx   d 8 B7 9D 12 BC 0F 11 00 00 
   0.283533 1  18EFFA00x    Rx   d 8 A4 3F 7F 70 84 3F 6F 14 
   0.283639 2  18EFFA00x    Rx   d 8 B8 00 00 02 7D 00 01 01 
   0.283820 1  18EFFA00x    Rx   d 8 A5 B6 3F 80 00 00 3F A7 
   0.283942 2  18EFFA00x    Rx   d 8 B9 00 00 00 00 00 00 00 
   0.284098 1  18EFFA00x    Rx   d 8 A6 D0 9E 3F 66 66 66 00 
   0.284237 2  18EFFA00x    Rx   d 8 BA 00 00 19 01 00 00 02 
   0.284385 1  18EFFA00x    Rx   d 8 A7 00 00 00 3F 4D AB 3B 
   0.284540 2  18EFFA00x    Rx   d 8 BB 02 00 00 00 01 01 01 
   0.284672 1  0CEFFF00x    Rx   d 8 64 06 C3 7E 69 85 FF FF 
   0.284835 2  18EFFA00x    Rx   d 8 BC 1E 5F 1E 5F 02 39 01 
   0.284958 1  0CF00300x    Rx   d 8 FF FE 21 FF FF FF 69 FF 
   0.285130 2  18EFFA00x    Rx   d 8 BD 10 07 02 00 00 00 00 
   0.285245 1  0CF00400x    Rx   d 8 F0 FF 9E 90 25 FF F4 FF 
   0.285409 2  0CF00400x    Rx   d 8 F0 FF 9E 96 25 FF F4 FF 
   0.285523 1  18EFFA00x    Rx   d 8 A8 40 53 50 90 3F 7F FF 
   0.285712 2  18EFFA00x    Rx   d 8 BE 00 00 00 00 00 00 00 
   0.285818 1  18F00F00x    Rx   d 8 43 F9 00 00 FF FF FF FF 
   0.285999 2  18FD9400x    Rx   d 8 4F 1D FF FF FF FF FF FF 
   0.286105 1  18EFFA00x    Rx   d 8 A9 FF 41 AD 91 5E 00 00 
   0.286285 2  18EFFA00x    Rx   d 8 BF 00 00 00 00 00 01 06 
   0.286392 1  18EFFA00x    Rx   d 8 AA C0 01 04 20 00 1C 3E 
   0.286572 2  18FDB300x    Rx   d 8 FF FF 96 3A FF FF FF FF 
   0.286670 1  18FFF413x    Rx   d 8 5F 3B 62 C2 99 58 2F FF 
   0.286867 2  18EFFA00x    Rx   d 8 C0 01 00 00 00 00 08 03 
   0.286949 1  18EFFA00x    Rx   d 8 AB 3F 5D 23 3E 40 27 77 
   0.287170 2  18EFFA00x    Rx   d 8 C1 00 01 00 00 00 00 01 
   0.287227 1  18EFFA00x    Rx   d 8 AC 3D B3 98 5F 3D B3 9D 
   0.287473 2  18EFFA00x    Rx   d 8 C2 00 00 00 21 01 01 03 
   0.287506 1  14EFFFEBx    Rx   d 8 64 95 01 0B F0 FF FF FF 
   0.287768 2  18EFFA00x    Rx   d 8 C3 00 82 00 01 02 01 00 
   0.287784 1  18EFFA00x    Rx   d 8 AD 4D 3E 99 50 C8 BE 16 
   0.288063 2  18EFFA00x    Rx   d 8 C4 00 00 01 00 1A C9 FF 
   0.288079 1  08FEF103x    Rx   d 8 FF 00 00 CF FF FF FF FF 
   0.288358 1  18EFFA00x    Rx   d 8 AE 85 4E 3E 0B F1 46 00 
   0.288653 1  18EFFA00x    Rx   d 8 AF 00 00 00 00 00 00 00 
   0.288948 1  18EFFA00x    Rx   d 8 B0 00 00 02 00 0B 28 00 
   0.289226 1  18EFFA00x    Rx   d 8 B1 00 00 0A 00 86 2E 95 
   0.289513 1  18EFFA00x    Rx   d 8 B2 12 C0 80 00 07 93 02 
   0.289800 1  18EFFA00x    Rx   d 8 B3 58 0F EC 03 9C 00 00 
   0.290086 1  1CE6FF26x    Rx   d 8 FE FE FF FF FF FF 00 00 
   0.290373 1  18EFFA00x    Rx   d 8 B4 01 37 34 98 01 9F 0D 
   0.290668 1  1CFFFA64x    Rx   d 8 00 2D 05 FF FF FF FF FF 
   0.290947 1  18EFFA00x    Rx   d 8 B5 4A 02 AB 01 9B 04 99 
   0.290963 2  1CFFFA64x    Rx   d 8 00 2D 05 FF FF FF FF FF 
   0.291225 1  1CFFFA26x    Rx   d 8 20 20 E8 63 00 7D FF FF 
   0.291291 2  198BF2BFx    Rx   d 8 64 10 F3 37 FA 37 F3 37 
   0.291504 1  18EFFA00x    Rx   d 8 B6 13 61 01 0D 0C 53 00 
   0.291577 2  1CFFFA26x    Rx   d 8 20 20 E8 63 00 7D FF FF 
   0.291782 1  18EFFA00x    Rx   d 8 B7 9D 12 BC 0F 11 00 00 
   0.291848 2  198BF2BFx    Rx   d 8 64 11 2A 38 2A 38 6A 35 
   0.292077 1  18EFFA00x    Rx   d 8 B8 00 00 02 7D 00 01 01 
   0.292126 2  198BF2BFx    Rx   d 8 64 12 43 35 85 35 FF FF 
   0.292356 1  14FFFEEAx    Rx   d 8 47 A5 02 00 00 85 7E FF 
   0.292651 1  18EFFA00x    Rx   d 8 B9 00 00 00 00 00 00 00 
   0.292937 1  18EFFA00x    Rx   d 8 BA 00 00 19 01 00 00 02 
   0.292970 2  0CF0045Bx    Rx   d 8 F0 FF 9E 96 25 FF F4 FF 
   0.293216 1  0CF0045Bx    Rx   d 8 F0 FF 9E 96 25 FF F4 FF 
   0.293265 2  0CFFF606x    Rx   d 8 FF FF FF FF FF FF FF FF 
   0.293502 1  18EFFA00x    Rx   d 8 BB 02 00 00 00 01 01 01 
   0.293552 2  18EFFF06x    Rx   d 8 F8 20 F2 FF FF FF FF FF 
   0.293797 1  0CFFEC5Bx    Rx   d 8 FF FF FF FF FF FF FF FF 
   0.294076 1  18EFFA00x    Rx   d 8 BC 1E 5F 1E 5F 02 39 01 
   0.294363 1  08FFFA5Bx    Rx   d 8 00 22 09 F3 EE 0A 0C FF 
   0.294658 1  08FFFBEAx    Rx   d 8 FB 02 00 08 01 FF FF FF 
   0.294944 1  18EFFA00x    Rx   d 8 BD 10 07 02 00 00 00 00 
   0.295231 1  18EFFF5Bx    Rx   d 8 64 A4 F0 FF FF FF FF FF 
   0.295247 2  04EF0006x    Rx   d 8 64 15 18 F3 A4 2E C0 12 
   0.295510 1  0CF00400x    Rx   d 8 F0 FF 9E 96 25 FF F4 FF 
   0.295804 1  18EFFA00x    Rx   d 8 BE 00 00 00 00 00 00 00 
   0.295911 2  0CEFFF00x    Rx   d 8 64 06 BD 7E 69 85 FF FF 
   0.296108 1  18FD9400x    Rx   d 8 4F 1D FF FF FF FF FF FF 
   0.296198 2  0CF00300x    Rx   d 8 FF FE 21 FF FF FF 69 FF 
   0.296394 1  08FFFBEAx    Rx   d 8 FB 02 12 00 FE FF FF FF 
   0.296476 2  0CF00400x    Rx   d 8 F0 FF 9E 8E 25 FF F4 FF 
   0.296689 1  18EFFA00x    Rx   d 8 BF 00 00 00 00 00 01 06 
   0.296763 2  0CF02300x    Rx   d 8 00 00 F2 FF FF 70 FF FF 
   0.296976 1  18FDB300x    Rx   d 8 FF FF 96 3A FF FF FF FF 
   0.297058 2  1CFFFA00x    Rx   d 8 00 50 35 0F 82 76 FF FF 
   0.297263 1  1CFFFAEAx    Rx   d 8 00 2D 06 FF FF FF FF FF 
   0.297549 1  0CEFFFEBx    Rx   d 8 F2 25 00 FF FF FF FF FF 
   0.297566 2  1CFFFAEAx    Rx   d 8 00 2D 06 FF FF FF FF FF 
   0.297836 1  08EFFFEBx    Rx   d 8 64 48 FF FF FF FD FF FF 
   0.298131 1  18EFFA00x    Rx   d 8 C0 01 00 00 00 00 08 03 
   0.298426 1  18EFFA00x    Rx   d 8 C1 00 01 00 00 00 00 01 
   0.298713 1  18EFFA00x    Rx   d 8 C2 00 00 00 21 01 01 03 
   0.299008 1  18EFFA00x    Rx   d 8 C3 00 82 00 01 02 01 00 
   0.299294 1  18EFFA00x    Rx   d 8 C4 00 00 01 00 1A C9 FF 
   0.299589 1  18EFFF06x    Rx   d 8 F8 20 F2 FF FF FF FF FF 
   0.299876 1  0CEFFF00x    Rx   d 8 64 06 BD 7E 69 85 FF FF 
   0.300171 1  0CF00300x    Rx   d 8 FF FE 21 FF FF FF 69 FF 
   0.300449 1  0CF00400x    Rx   d 8 F0 FF 9E 8E 25 FF F4 FF 
   0.300736 1  0CFE4831x    Rx   d 8 FF FF FF FF FF FF FF F7 
   0.301023 1  0CF02300x    Rx   d 8 00 00 F2 FF FF 70 FF FF 
   0.301318 1  18FFFF31x    Rx   d 8 87 FF 00 FF FF FF FF FF 
   0.301342 2  1CFFFABFx    Rx   d 8 00 2D 01 01 FF FF FF FF 
   0.301637 1  1CFFFABFx    Rx   d 8 00 2D 01 01 FF FF FF FF 
   0.302440 1  08FFFAEAx    Rx   d 8 00 32 F2 00 00 FF FF FF 
   0.302817 1  18EFFA26x    Rx   d 8 AD 63 6E 01 37 00 C8 01 
   0.303022 2  08FEF15Bx    Rx   d 8 FF 00 00 CF FF FF FF FF 
   0.303104 1  08FEF15Bx    Rx   d 8 FF 00 00 CF FF FF FF FF 
   0.303300 2  08FFF4F2x    Rx   d 8 5E 05 FC 00 00 00 F0 FF 
   0.303382 1  18E726EAx    Rx   d 8 A8 40 04 FF 08 01 00 00 
   0.303669 1  08EFFF5Bx    Rx   d 8 64 57 2F FF FF 00 00 FF 
   0.303947 1  18EFFA26x    Rx   d 8 AD 65 C7 01 00 00 CC 01 
   0.304226 1  08FFFA5Bx    Rx   d 8 00 21 60 22 B0 22 FF FF 
   0.304521 1  18FFFA26x    Rx   d 8 00 24 00 FF FF FF FF FF 
   0.304824 1  18EFFA26x    Rx   d 8 AD 49 00 7D 07 03 00 00 
   0.305119 1  18EFFA26x    Rx   d 8 AD 4D FF 01 00 00 0A 00 
   0.305389 2  0CF00400x    Rx   d 8 F0 FF 9E 82 25 FF F4 FF 
   0.305430 1  18EFFA26x    Rx   d 8 AD 72 F5 07 57 00 ED 08 
   0.305684 2  18F00E00x    Rx   d 8 00 FA 00 00 FF FF FF FF 
   0.305709 1  0CF00400x    Rx   d 8 F0 FF 9E 82 25 FF F4 FF 
   0.305971 2  18FEDF00x    Rx   d 8 82 80 25 FF FF FF FF 00 
   0.305987 1  18EFFA26x    Rx   d 8 AD 8F 00 00 00 00 B2 04 
   0.306282 1  18F00E00x    Rx   d 8 00 FA 00 00 FF FF FF FF 
   0.306552 1  18EFFA26x    Rx   d 8 AD 90 20 4E 34 00 35 08 
   0.306847 1  18FEDF00x    Rx   d 8 82 80 25 FF FF FF FF 00 
   0.307126 1  1CE6EA26x    Rx   d 8 A8 40 04 00 08 01 00 00 
   0.309346 2  08EFFF03x    Rx   d 8 64 61 41 2F 1F 0F FF FF 
   0.309567 1  1CFFFAEBx    Rx   d 8 00 2D 06 FF FF FF FF FF 
   0.309862 2  1CFFFAEBx    Rx   d 8 00 2D 06 FF FF FF FF FF 
   0.310534 2  18EFFA13x    Rx   d 8 AD 12 ED D8 ED D8 00 00 
   0.310550 1  0CFF1B31x    Rx   d 8 27 7A C1 00 90 12 00 00 
   0.310837 2  0CFF1B31x    Rx   d 8 27 7A C1 00 90 12 00 00 
   0.312655 1  0CFF18EBx    Rx   d 8 C0 03 00 04 40 07 06 FF 
   0.312983 2  0CF0045Bx    Rx   d 8 F0 FF 9E 82 25 FF F4 FF 
   0.312991 1  0CF0045Bx    Rx   d 8 F0 FF 9E 82 25 FF F4 FF 
   0.313270 1  18FFFA5Bx    Rx   d 8 06 02 2C 01 52 01 64 FF 
   0.314253 1  1CFFFA79x    Rx   d 8 00 2D 05 FF FF FF FF FF 
   0.314556 2  1CFFFA79x    Rx   d 8 00 2D 05 FF FF FF FF FF 
   0.314605 1  1CFFFA5Bx    Rx   d 8 00 2D 08 FF FF 19 2A 1F 
   0.314834 2  1CFFFA5Bx    Rx   d 8 00 2D 08 FF FF 19 2A 1F 
   0.315187 2  04EF0006x    Rx   d 8 64 15 19 F3 95 2E C0 12 
   0.315465 2  0CEFFF00x    Rx   d 8 64 06 C0 7E 69 86 FF FF 
   0.315752 2  0CF00300x    Rx   d 8 FF FE 22 FF FF FF 69 FF 
   0.315760 1  0CEFFF00x    Rx   d 8 64 06 C0 7E 69 86 FF FF 
   0.316030 2  0CF00400x    Rx   d 8 F0 FF 9E 76 25 FF F4 FF 
   0.316047 1  0CF00300x    Rx   d 8 FF FE 22 FF FF FF 69 FF 
   0.316317 2  18FEF200x    Rx   d 8 22 01 FF FF FF FF FF FF 
   0.316325 1  0CF00400x    Rx   d 8 F0 FF 9E 76 25 FF F4 FF 
   0.316637 1  18FEF200x    Rx   d 8 22 01 FF FF FF FF FF FF 
   0.317505 1  14EFFFEBx    Rx   d 8 64 46 DA 00 FF FF 00 00 
   0.319569 1  18FFFE31x    Rx   d 8 FD FB FB FB FB FF FF FF 
   0.320552 1  0CFFF331x    Rx   d 8 31 C0 24 FF FF FF FF F8 
   0.320847 2  0CFFF331x    Rx   d 8 31 C0 24 FF FF FF FF F8 
   0.321298 2  198BF2BFx    Rx   d 8 64 10 07 38 07 38 00 38 
   0.321576 2  198BF2BFx    Rx   d 8 64 11 38 38 38 38 80 35 
   0.321855 2  198BF2BFx    Rx   d 8 64 12 5D 35 9B 35 FF FF 
   0.322994 2  18EFFFF2x    Rx   d 8 64 58 FC F4 80 FF C0 24 
   0.323035 1  14EFFF5Bx    Rx   d 8 64 53 FF FF 40 01 15 F0 
   0.323272 2  14EFFF5Bx    Rx   d 8 64 53 FF FF 40 01 15 F0 
   0.323330 1  18FFFB5Bx    Rx   d 8 00 05 9E FF FF FF FF FF 
   0.325378 2  0CF00400x    Rx   d 8 F0 FF 9F 76 25 FF F4 FF 
   0.325664 1  0CF00400x    Rx   d 8 F0 FF 9F 76 25 FF F4 FF 
   0.325672 2  18F00F00x    Rx   d 8 43 F9 00 00 FF FF FF FF 
   0.325959 2  18FFF413x    Rx   d 8 95 FF FF FF FF FF FF FF 
   0.325967 1  18F00F00x    Rx   d 8 43 F9 00 00 FF FF FF FF 
   0.327319 1  18FFFD26x    Rx   d 8 00 07 F0 FF FF FF FF FF 
   0.329449 1  1CFFFA64x    Rx   d 8 00 2D 06 FF FF FF FF FF 
   0.329752 2  1CFFFA64x    Rx   d 8 00 2D 06 FF FF FF FF FF 
   0.330285 1  1CFFFA26x    Rx   d 8 20 20 E8 63 00 7D FF FF 
   0.330571 1  18FFFF31x    Rx   d 8 EC FF FF FF FF FD FF FF 
   0.330571 2  1CFFFA26x    Rx   d 8 20 20 E8 63 00 7D FF FF 
   0.330866 2  18FFFF31x    Rx   d 8 EC FF FF FF FF FD FF FF 
   0.331145 1  18EA1BFCx    Rx   d 3 C5 FD 00                
   0.331530 1  18FFFA26x    Rx   d 8 07 00 00 00 F5 05 80 00 
   0.331816 1  18E8FC1Bx    Rx   d 8 01 FF FF FF FF C5 FD 00 
   0.332963 2  0CF0045Bx    Rx   d 8 F0 FF 9F 76 25 FF F4 FF 
   0.332972 1  0CF0045Bx    Rx   d 8 F0 FF 9F 76 25 FF F4 FF 
   0.333250 2  18EFFF06x    Rx   d 8 F8 20 F2 FF FF FF FF FF 
   0.333258 1  18EFFF06x    Rx   d 8 F8 20 F2 FF FF FF FF FF 
   0.333520 2  18FE695Bx    Rx   d 8 5E 25 52 2B FF FF 12 24 
   0.333529 1  18FE695Bx    Rx   d 8 5E 25 52 2B FF FF 12 24 
   0.333807 2  18FEF55Bx    Rx   d 8 C5 FF FF 5A 23 31 FF FF 
   0.333815 1  18FEF55Bx    Rx   d 8 C5 FF FF 5A 23 31 FF FF 
   0.334462 1  08FFFBEAx    Rx   d 8 FB 02 00 08 01 FF FF FF 
   0.335200 2  04EF0006x    Rx   d 8 64 15 1A F3 AC 2E C0 12 
   0.335486 2  0CEFFF00x    Rx   d 8 64 06 D0 7E 69 86 FF FF 
   0.335773 2  0CF00300x    Rx   d 8 FF FE 22 FF FF FF 69 FF 
   0.335781 1  0CEFFF00x    Rx   d 8 64 06 D0 7E 69 86 FF FF 
   0.336052 2  0CF00400x    Rx   d 8 F0 FF 9F 7A 25 FF F4 FF 
   0.336068 1  0CF00300x    Rx   d 8 FF FE 22 FF FF FF 69 FF 
   0.336338 2  18EF0600x    Rx   d 8 64 0E 64 00 FF FF FF FF 
   0.336347 1  0CF00400x    Rx   d 8 F0 FF 9F 7A 25 FF F4 FF 
   0.336633 2  18EFFF00x    Rx   d 8 F8 21 04 00 00 00 00 00 
   0.336936 1  18EFFF00x    Rx   d 8 F8 21 04 00 00 00 00 00 
   0.337371 1  18FFFBEBx    Rx   d 8 F1 22 5E 23 FF FF FF FF 
   0.341344 2  1CFFFABFx    Rx   d 8 00 2D 02 00 00 00 19 FF 
   0.341639 1  1CFFFABFx    Rx   d 8 00 2D 02 00 00 00 19 FF 
   0.342360 1  14FFFFEAx    Rx   d 8 16 FF 00 72 FF FE 33 21 
   0.343015 1  14FFFB5Bx    Rx   d 8 00 4C FF FF FF FF FF FF 
   0.343031 2  18EFFF5Bx    Rx   d 8 FC 09 00 00 0A 00 FF 00 
   0.343302 1  18EFFF5Bx    Rx   d 8 FC 09 00 00 0A 00 FF 00 
   0.343597 1  10FF145Bx    Rx   d 8 FF FF FF FF FF FF FF FF 
   0.345702 2  0CF00400x    Rx   d 8 F0 FF 9E 84 25 FF F4 FF 
   0.345989 1  0CF00400x    Rx   d 8 F0 FF 9E 84 25 FF F4 FF 
   0.345989 2  0CF02300x    Rx   d 8 00 00 F2 FF FF 70 FF FF 
   0.346284 1  0CF02300x    Rx   d 8 00 00 F2 FF FF 70 FF FF 
   0.347381 1  18FFFBEBx    Rx   d 8 00 EE C1 FF FF FF FF FF 
   0.347668 1  18FFFBEBx    Rx   d 8 F1 21 FF FF FF FF FF FF 
   0.347684 2  18FFFBEBx    Rx   d 8 00 EE C1 FF FF FF FF FF 
   0.349339 2  08EFFF03x    Rx   d 8 64 61 41 2F 1F 0F FF FF 
   0.349691 1  1CFFF831x    Rx   d 8 85 FB FB FF FF FF FF FC 
   0.349978 1  1CFFFAEBx    Rx   d 8 00 2D 07 FF FF FF FF FF 
   0.350281 2  1CFFFAEBx    Rx   d 8 00 2D 07 FF FF FF FF FF 
   0.350560 2  18EFFA13x    Rx   d 8 AD 12 ED D8 ED D8 00 00 
   0.350584 1  18FFF831x    Rx   d 8 45 FF FF F0 F0 FF FF FF 
   0.350879 1  08FFF831x    Rx   d 8 16 FF FF FF FF FF FF FF 
   0.351166 1  18FFFA31x    Rx   d 8 01 72 FC FF FC FF FF FF 
   0.351297 2  198BF2BFx    Rx   d 8 64 10 00 38 07 38 00 38 
   0.351453 1  18FFFA31x    Rx   d 8 01 73 FC FF FC FF FF FF 
   0.351576 2  198BF2BFx    Rx   d 8 64 11 38 38 38 38 7C 35 
   0.351748 1  18FFF831x    Rx   d 8 0A 00 FF FF FF FF FF FF 
   0.351854 2  198BF2BFx    Rx   d 8 64 12 54 35 96 35 FF FF 
   0.352141 2  198BF2BFx    Rx   d 8 64 00 46 DE F7 03 FF FF 
   0.352960 2  0CF0045Bx    Rx   d 8 F0 FF 9E 84 25 FF F4 FF 
   0.352968 1  0CF0045Bx    Rx   d 8 F0 FF 9E 84 25 FF F4 FF 
   0.353509 1  0CFF18EBx    Rx   d 8 C0 0D 00 07 40 07 07 FF 
   0.353804 1  08FFFB26x    Rx   d 8 F9 01 01 80 00 FF FF FF 
   0.354115 2  08FFFB26x    Rx   d 8 F9 01 01 80 00 FF FF FF 
   0.354533 2  1CFFFA5Bx    Rx   d 8 00 2D 09 38 FF FF FF FF 
   0.354541 1  1CFFFA5Bx    Rx   d 8 00 2D 09 38 FF FF FF FF 
   0.355139 2  04EF0006x    Rx   d 8 64 15 1B F3 95 2E C0 12 
   0.355418 2  18EFFF00x    Rx   d 8 64 10 0F 0F EA 09 6D BD 
   0.355680 1  1CFFFA79x    Rx   d 8 00 2D 06 FF FF FF FF FF 
   0.355704 2  0CEFFF00x    Rx   d 8 64 06 CA 7E 69 86 FF FF 
   0.355958 1  18EFFF00x    Rx   d 8 64 10 0F 0F EA 09 6D BD 
   0.355991 2  0CF00300x    Rx   d 8 FF FE 21 FF FF FF 69 FF 
   0.356245 1  0CEFFF00x    Rx   d 8 64 06 CA 7E 69 86 FF FF 
   0.356270 2  0CF00400x    Rx   d 8 F0 FF 9E 92 25 FF F4 FF 
   0.356532 1  0CF00300x    Rx   d 8 FF FE 21 FF FF FF 69 FF 
   0.356564 2  18F00E00x    Rx   d 8 01 FA 00 00 FF FF FF FF 
   0.356818 1  0CF00400x    Rx   d 8 F0 FF 9E 92 25 FF F4 FF 
   0.356851 2  18FED500x    Rx   d 8 FF FF FD FF FF FF FF FF 
   0.357113 1  18F00E00x    Rx   d 8 01 FA 00 00 FF FF FF FF 
   0.357146 2  1CFFFA79x    Rx   d 8 00 2D 06 FF FF FF FF FF 
   0.359358 2  08FFFA03x    Rx   d 8 00 23 F3 FF FF FF FF FF 
   0.360300 1  18FFFA26x    Rx   d 8 00 31 00 FD FF FF FF FF 
   0.360579 1  0CFF1B31x    Rx   d 8 27 7A C1 00 A0 4B 00 00 
   0.360865 1  0CFFF331x    Rx   d 8 31 C0 24 FF FF FF FF F8 
   0.360865 2  0CFF1B31x    Rx   d 8 27 7A C1 00 A0 4B 00 00 
   0.361144 1  18FFF886x    Rx   d 8 9B 00 7D 00 64 80 F0 FF 
   0.361177 2  0CFFF331x    Rx   d 8 31 C0 24 FF FF FF FF F8 
   0.363003 2  18EFFFF2x    Rx   d 8 64 58 FC F4 80 FF C0 24 
   0.363069 1  18FFFB5Bx    Rx   d 8 00 81 F2 FF FF FF FF FF 
   0.364052 1  18FFFA28x    Rx   d 8 00 4F FC FF FF FF FF FF 
   0.365305 2  0CF00400x    Rx   d 8 F0 FF 9D 90 25 FF F4 FF 
   0.365608 1  0CF00400x    Rx   d 8 F0 FF 9D 90 25 FF F4 FF 
   0.365780 2  0CACFF13x    Rx   d 8 32 7D 14 1F C0 FF FF FF 
   0.366067 2  18FFF413x    Rx   d 8 63 FA 03 00 20 E1 FF FF 
   0.366075 1  0CACFF13x    Rx   d 8 32 7D 14 1F C0 FF FF FF 
   0.366362 1  18FFF413x    Rx   d 8 63 FA 03 00 20 E1 FF FF 
   0.367288 1  14EFFFEBx    Rx   d 8 64 4A 54 02 85 89 FF FF 
   0.369360 1  18FFFA31x    Rx   d 8 00 2F 11 FF FF FF FF FF 
   0.369655 1  1CFFFA64x    Rx   d 8 00 2D 07 FF FF FF FF FF 
   0.369942 1  18EFFF31x    Rx   d 8 F4 19 FF FF FF FF FF FF 
   0.369958 2  1CFFFA64x    Rx   d 8 00 2D 07 FF FF FF FF FF 
   0.370352 1  1CFFFA26x    Rx   d 8 20 20 E8 63 00 7D FF FF 
   0.370647 2  1CFFFA26x    Rx   d 8 20 20 E8 63 00 7D FF FF 
   0.372948 2  0CF0045Bx    Rx   d 8 F0 FF 9D 90 25 FF F4 FF 
   0.372957 1  0CF0045Bx    Rx   d 8 F0 FF 9D 90 25 FF F4 FF 
   0.373243 2  0CFFF606x    Rx   d 8 FF FF FF FF FF FF FF FF 
   0.373243 1  14FEFC5Bx    Rx   d 8 FF 2F FF FF FF FF FF FF 
   0.373538 2  18EFFF06x    Rx   d 8 F8 20 F2 FF FF FF FF FF 
   0.373538 1  18EFFF06x    Rx   d 8 F8 20 F2 FF FF FF FF FF 
   0.374276 1  08FFFBEAx    Rx   d 8 FB 02 00 08 01 FF FF FF 
   0.375169 2  04EF0006x    Rx   d 8 64 15 1C F3 A4 2E C0 12 
   0.375455 2  0CEFFF00x    Rx   d 8 64 06 BA 7E 69 85 FF FF 
   0.375742 1  0CEFFF00x    Rx   d 8 64 06 BA 7E 69 85 FF FF 
   0.375742 2  0CF00300x    Rx   d 8 FF FE 22 FF FF FF 69 FF 
   0.376020 2  0CF00400x    Rx   d 8 F0 FF 9D 80 25 FF F4 FF 
   0.376029 1  08FFFBEAx    Rx   d 8 FB 02 12 00 FE FF FF FF 
   0.376307 2  18F00F00x    Rx   d 8 43 F9 00 00 FF FF FF FF 
   0.376315 1  0CF00300x    Rx   d 8 FF FE 22 FF FF FF 69 FF 
   0.376594 2  18FFF413x    Rx   d 8 95 FF FF FF FF FF FF FF 
   0.376602 1  1CFFFAEAx    Rx   d 8 00 2D 07 FF FF FF FF FF 
   0.376881 2  18FFF413x    Rx   d 8 5F 3B 62 C2 99 58 3F FF 
   0.376889 1  0CF00400x    Rx   d 8 F0 FF 9D 80 25 FF F4 FF 
   0.377176 2  1CFFFAEAx    Rx   d 8 00 2D 07 FF FF FF FF FF 
   0.377176 1  18F00F00x    Rx   d 8 43 F9 00 00 FF FF FF FF 
   0.377454 1  18FFF413x    Rx   d 8 5F 3B 62 C2 99 58 3F FF 
   0.377741 1  08EFFFEBx    Rx   d 8 F8 0B DC 00 99 7F F1 00 
   0.378036 2  08EFFFEBx    Rx   d 8 F8 0B DC 00 99 7F F1 00 
   0.379355 2  08FEF103x    Rx   d 8 FF 00 00 CF FF FF FF FF 
   0.379641 2  08FFFA03x    Rx   d 8 02 8C 90 25 FF FF FF FF 
   0.379641 1  08FEF103x    Rx   d 8 FF 00 00 CF FF FF FF FF 
   0.379920 1  18EFFF31x    Rx   d 8 F1 07 CC CC 00 00 CC EC 
   0.380207 1  18EFFF31x    Rx   d 8 F0 02 CC 00 30 F0 FF FF 
   0.380608 1  0CFE4131x    Rx   d 8 FF F3 3F 3F FF FF FF FF 
   0.380903 1  18FFFB31x    Rx   d 8 00 80 F4 FF FF FF FF FF 
   0.381304 2  198BF2BFx    Rx   d 8 64 10 FA 37 FA 37 F3 37 
   0.381575 2  198BF2BFx    Rx   d 8 64 11 2A 38 23 38 6F 35 
   0.381853 2  198BF2BFx    Rx   d 8 64 12 47 35 85 35 FF FF 
   0.382148 2  1CFFFABFx    Rx   d 8 00 2D 03 FF FF FF FF FF 
   0.382451 1  1CFFFABFx    Rx   d 8 00 2D 03 FF FF FF FF FF 
   0.385261 2  0CF00400x    Rx   d 8 F0 FF 9E 80 25 FF F4 FF 
   0.385548 1  0CF00400x    Rx   d 8 F0 FF 9E 80 25 FF F4 FF 
   0.385548 2  18FD9400x    Rx   d 8 57 1D FF FF FF FF FF FF 
   0.385851 1  18FD9400x    Rx   d 8 57 1D FF FF FF FF FF FF 
   0.389341 2  08EFFF03x    Rx   d 8 64 61 40 2F 1F 0F FF FF 
   0.389521 1  1CFFFAEBx    Rx   d 8 00 2D 08 FF FF 25 00 19 
   0.389816 2  1CFFFAEBx    Rx   d 8 00 2D 08 FF FF 25 00 19 
   0.390537 2  18EFFA13x    Rx   d 8 AD 12 ED D8 ED D8 00 00 
   0.390569 1  18D0FF31x    Rx   d 8 FA FA FF FF FF FF FF FF 
   0.390823 2  18FFF8C5x    Rx   d 8 9B 00 7D 00 64 80 F0 00 
   0.392372 1  14FFFEEAx    Rx   d 8 43 08 01 03 00 FF FF FF 
   0.392658 1  14FFFBEAx    Rx   d 8 61 05 FF FF FF FF FF FF 
   0.392945 1  0CFF18EBx    Rx   d 8 C0 2C 00 01 40 07 01 FF 
   0.392978 2  0CF0045Bx    Rx   d 8 F0 FF 9E 80 25 FF F4 FF 
   0.393216 1  0CF0045Bx    Rx   d 8 F0 FF 9E 80 25 FF F4 FF 
   0.393510 1  0CFFEC5Bx    Rx   d 8 FF FF FF FF FF FF FF FF 
   0.393797 1  08FFFA5Bx    Rx   d 8 00 22 09 F3 EE 0A 0C FF 
   0.394469 1  1CFFFA79x    Rx   d 8 00 2D 07 FF FF FF FF FF 
   0.394608 2  1CFFFA5Bx    Rx   d 8 00 2D 0A 19 06 0C 38 FF 
   0.394756 1  18FECAEBx    Rx   d 8 01 FF 60 FD E3 01 FF FF 
   0.394903 2  1CFFFA79x    Rx   d 8 00 2D 07 FF FF FF FF FF 
   0.395034 1  1CFFFA5Bx    Rx   d 8 00 2D 0A 19 06 0C 38 FF 
   0.395190 2  18FECAEBx    Rx   d 8 01 FF 60 FD E3 01 FF FF 
   0.395460 2  04EF0006x    Rx   d 8 64 15 1D F3 95 2E C0 12 
   0.395763 2  18FE47C5x    Rx   d 8 FF FF FF FF FF FF FF FF 
   0.396042 2  0CEFFF00x    Rx   d 8 64 06 CA 7E 69 86 FF FF 
   0.396328 2  0CF00300x    Rx   d 8 FF FE 22 FF FF FF 69 FF 
   0.396337 1  0CEFFF00x    Rx   d 8 64 06 CA 7E 69 86 FF FF 
   0.396607 2  0CF00400x    Rx   d 8 F0 FF 9E 7A 25 FF F4 FF 
   0.396632 1  0CF00300x    Rx   d 8 FF FE 22 FF FF FF 69 FF 
   0.396894 2  0CF02300x    Rx   d 8 00 00 F2 FF FF 70 FF FF 
   0.396910 1  0CF00400x    Rx   d 8 F0 FF 9E 7A 25 FF F4 FF 
   0.397180 2  0CFD9200x    Rx   d 8 F4 FF FF FF FF FF FF FF 
   0.397197 1  0CF02300x    Rx   d 8 00 00 F2 FF FF 70 FF FF 
   0.397475 2  18FDB200x    Rx   d 8 FF FF FF FF 04 00 FF FF 
   0.397484 1  08EFFFEBx    Rx   d 8 64 48 FF FF FF FD FF FF 
   0.397778 2  18FDC700x    Rx   d 8 00 FF FF FF FF FF FF FF 
   0.397795 1  18FDB200x    Rx   d 8 FF FF FF FF 04 00 FF FF 
   0.398065 2  18FE4700x    Rx   d 8 7F FF FF FF FF FF FF FF 
   0.398082 1  10FFFE19x    Rx   d 8 0B FF FF 1A FC 00 FF FF 
   0.398360 2  1CFFFA00x    Rx   d 8 00 50 31 0F 7D 76 FF FF 
   0.400547 1  0CFFF331x    Rx   d 8 31 C0 24 FF FF FF FF F8 
   0.400834 1  18FFFF31x    Rx   d 8 87 FF 00 FF FF FF FF FF 
   0.400842 2  0CFFF331x    Rx   d 8 31 C0 24 FF FF FF FF F8 
   0.402358 1  08FFFAEAx    Rx   d 8 00 32 F2 00 00 FF FF FF 
   0.402644 1  18FFF8EAx    Rx   d 8 76 FF FF FF FF FF FF FF 
   0.402939 1  18EFFF26x    Rx   d 8 09 FF FF FF FF 00 00 FF 
   0.403021 2  18EFFFF2x    Rx   d 8 64 58 FC F4 80 FF C0 24 
   0.403226 1  08FEF15Bx    Rx   d 8 FF 00 00 CF FF FF FF FF 
   0.403308 2  08FEF15Bx    Rx   d 8 FF 00 00 CF FF FF FF FF 
   0.403513 1  14FE685Bx    Rx   d 8 47 FE FF FE FF FF FF FF 
   0.403595 2  08FFF4F2x    Rx   d 8 5E 05 FC 00 00 00 F0 FF 
   0.403800 1  08EFFF5Bx    Rx   d 8 64 57 2F FF FF 00 00 FF 
   0.403881 2  14FE685Bx    Rx   d 8 47 FE FF FE FF FF FF FF 
   0.404078 1  14EFFF5Bx    Rx   d 8 64 53 FF FF 40 01 16 F0 
   0.404160 2  14EFFF5Bx    Rx   d 8 64 53 FF FF 40 01 16 F0 
   0.404357 1  08FFFA5Bx    Rx   d 8 00 21 60 22 B0 22 FF FF 
   0.404635 1  18E726EAx    Rx   d 8 A8 40 04 FF 09 01 00 00 
   0.404930 1  18FFFA26x    Rx   d 8 00 24 00 FF FF FF FF FF 
   0.405585 2  0CF00400x    Rx   d 8 F0 FF 9E 74 25 FF F4 FF 
   0.405864 1  0CF00400x    Rx   d 8 F0 FF 9E 74 25 FF F4 FF 
   0.405872 2  18F00E00x    Rx   d 8 FD F9 00 00 FF FF FF FF 
   0.406167 2  18FEDF00x    Rx   d 8 82 80 25 FF FF FF FF 00 
   0.406175 1  18F00E00x    Rx   d 8 FD F9 00 00 FF FF FF FF 
   0.406470 1  18FEDF00x    Rx   d 8 82 80 25 FF FF FF FF 00 
   0.407863 1  18FFFA31x    Rx   d 8 02 98 1A 42 37 37 FF FF 
   0.409346 1  18FFFF31x    Rx   d 8 06 FF FF FF FF FF FF 3F 
   0.409739 1  1CFFFA64x    Rx   d 8 00 2D 08 FF FF 19 00 00 
   0.410034 2  1CFFFA64x    Rx   d 8 00 2D 08 FF FF 19 00 00 
   0.410550 1  0CFF1B31x    Rx   d 8 27 7A C1 00 B0 F1 00 00 
   0.410836 1  18EFFF31x    Rx   d 8 64 67 FF FF FF 82 FF FF 
   0.410836 2  0CFF1B31x    Rx   d 8 27 7A C1 00 B0 F1 00 00 
   0.411115 1  1CE6EA26x    Rx   d 8 A8 40 04 00 09 01 00 00 
   0.411295 2  198BF2BFx    Rx   d 8 64 10 EC 37 F3 37 EC 37 
   0.411566 2  198BF2BFx    Rx   d 8 64 11 23 38 23 38 6F 35 
   0.411664 1  18FECA31x    Rx   d 8 00 FF 00 00 00 00 FF FF 
   0.411844 2  198BF2BFx    Rx   d 8 64 12 43 35 85 35 FF FF 
   0.412131 2  18FECA31x    Rx   d 8 00 FF 00 00 00 00 FF FF 
   0.412966 2  0CF0045Bx    Rx   d 8 F0 FF 9E 74 25 FF F4 FF 
   0.412975 1  0CF0045Bx    Rx   d 8 F0 FF 9E 74 25 FF F4 FF 
   0.413261 2  18EFFF06x    Rx   d 8 F8 20 F2 FF FF FF FF FF 
   0.413261 1  18EFFF06x    Rx   d 8 F8 20 F2 FF FF FF FF FF 
   0.414367 1  08FFFBEAx    Rx   d 8 FB 02 00 08 01 FF FF FF 
   0.415145 2  04EF0006x    Rx   d 8 64 15 1E F3 AC 2E C0 12 
   0.415539 2  0CEFFF00x    Rx   d 8 64 06 CC 7E 69 86 FF FF 
   0.415834 2  0CF00300x    Rx   d 8 FF FE 23 FF FF FF 69 FF 
   0.415834 1  0CEFFF00x    Rx   d 8 64 06 CC 7E 69 86 FF FF 
   0.416104 2  0CF00400x    Rx   d 8 F0 FF 9E 6E 25 FF F4 FF 
   0.416129 1  0CF00300x    Rx   d 8 FF FE 23 FF FF FF 69 FF 
   0.416399 2  18FEF200x    Rx   d 8 27 01 FF FF FF FF FF FF 
   0.416407 1  0CF00400x    Rx   d 8 F0 FF 9E 6E 25 FF F4 FF 
   0.416702 1  18FEF200x    Rx   d 8 27 01 FF FF FF FF FF FF 
   0.417374 1  14EFFFEBx    Rx   d 8 64 45 13 02 00 00 E5 00 
   0.417660 1  14EFFFEBx    Rx   d 8 64 95 4C 0B F0 FF FF FF 
   0.417947 1  18FFFE31x    Rx   d 8 05 FC FF FF FF FF FF FF 
   0.419307 1  18FFFE31x    Rx   d 8 FD FB FB FB FB FF FF FF 
   0.420315 1  18FFFA26x    Rx   d 8 07 11 FF FF CF FF FF FF 
   0.420601 1  0CFE4831x    Rx   d 8 FF FF FF FF FF FF FF F7 
   0.420888 1  18EFFF31x    Rx   d 8 64 65 FF FF 00 FF FF FF 
   0.421158 1  0CFEE826x    Rx   d 8 50 5C 01 00 81 64 CE 53 
   0.421347 2  1CFFFABFx    Rx   d 8 00 2D 04 FF FF FF FF FF 
   0.421445 1  18EFFF31x    Rx   d 8 64 66 FF FF FF 55 FF FF 
   0.421625 2  0CFEE826x    Rx   d 8 50 5C 01 00 81 64 CE 53 
   0.421707 1  18FEF326x    Rx   d 8 D0 A9 EA 95 53 29 49 47 
   0.421994 1  18FFFA31x    Rx   d 8 01 70 3C FF F0 FC FF FF 
   0.422264 1  18FEE826x    Rx   d 8 50 5C 01 00 81 64 CE 53 
   0.422551 2  18FEE826x    Rx   d 8 50 5C 01 00 81 64 CE 53 
   0.422559 1  14FFFBEAx    Rx   d 8 FB 06 FF FF FF FF FF FF 
   0.422846 1  18FFFA31x    Rx   d 8 01 71 3C FF F0 FC 0F FF 
   0.422993 2  18FEEE5Bx    Rx   d 8 71 3B FF FF FF FF FF FF 
   0.423133 1  18FEEE5Bx    Rx   d 8 71 3B FF FF FF FF FF FF 
   0.423428 1  18FFFAEAx    Rx   d 8 01 73 FF FF FF FF FF FF 
   0.423723 1  18FFFB5Bx    Rx   d 8 00 05 9F FF FF FF FF FF 
   0.424009 1  1CFFFA26x    Rx   d 8 20 20 E8 63 00 7D FF FF 
   0.424296 1  1CFFFABFx    Rx   d 8 00 2D 04 FF FF FF FF FF 
   0.424296 2  1CFFFA26x    Rx   d 8 20 20 E8 63 00 7D FF FF 
   0.425295 2  0CF00400x    Rx   d 8 F0 FF 9F 76 25 FF F4 FF 
   0.425549 1  0CFFFF26x    Rx   d 8 51 03 02 1E 09 05 07 04 
   0.425582 2  18F00F00x    Rx   d 8 43 F9 00 00 FF FF FF FF 
   0.425828 1  0CF00400x    Rx   d 8 F0 FF 9F 76 25 FF F4 FF 
   0.425877 2  18FFF413x    Rx   d 8 95 FF FF FF FF FF FF FF 
   0.426098 1  08FFFF26x    Rx   d 8 E1 DF E8 63 00 64 FF 22 
   0.426385 2  08FFFF26x    Rx   d 8 E1 DF E8 63 00 64 FF 22 
   0.426385 1  18F00F00x    Rx   d 8 43 F9 00 00 FF FF FF FF 
   0.426663 1  18FFFF26x    Rx   d 8 53 0D D4 5A 10 55 41 54 
   0.427499 1  0CFFFA26x    Rx   d 8 01 45 FF FF FF FF FF FF 
   0.429350 2  08EFFF03x    Rx   d 8 64 61 40 2F 1F 0F FF FF 
   0.429522 1  1CFFFAEBx    Rx   d 8 00 2D 09 30 FF FF FF FF 
   0.429637 2  18FFFB03x    Rx   d 8 FB 0B 57 05 30 75 FF FF 
   0.429924 2  1CFFFAEBx    Rx   d 8 00 2D 09 30 FF FF FF FF 
   0.429924 1  18FFFB03x    Rx   d 8 FB 0B 57 05 30 75 FF FF 
   0.430538 2  18EFFA13x    Rx   d 8 AD 12 ED D8 ED D8 00 00 
   0.430596 1  0CADFF26x    Rx   d 8 FF FF FC FF FF FF FF FF 
   0.430891 2  0CADFF26x    Rx   d 8 FF FF FC FF FF FF FF FF 
   0.430907 1  18FFF426x    Rx   d 8 64 2A 46 30 00 FA 82 23 
   0.431185 2  18FFF426x    Rx   d 8 64 2A 46 30 00 FA 82 23 
   0.432078 1  1CFFFA79x    Rx   d 8 00 2D 08 FF FF 4B 1F 00 
   0.432365 2  1CFFFA79x    Rx   d 8 00 2D 08 FF FF 4B 1F 00 
   0.432586 1  0CFF18EBx    Rx   d 8 C0 17 00 02 40 07 02 FF 
   0.432988 2  0CF0045Bx    Rx   d 8 F0 FF 9F 76 25 FF F4 FF 
   0.432996 1  0CF0045Bx    Rx   d 8 F0 FF 9F 76 25 FF F4 FF 
   0.433643 1  08FFFB26x    Rx   d 8 F9 01 01 80 00 FF FF FF 
   0.433938 2  08FFFB26x    Rx   d 8 F9 01 01 80 00 FF FF FF 
   0.434634 2  1CFFFA5Bx    Rx   d 8 00 2D 0B FF FF FF FF FF 
   0.434642 1  1CFFFA5Bx    Rx   d 8 00 2D 0B FF FF FF FF FF 
   0.435224 2  04EF0006x    Rx   d 8 64 15 1F F3 AC 2E C0 12 
   0.435503 2  0CEFFF00x    Rx   d 8 64 06 D1 7E 69 86 FF FF 
   0.435789 2  0CF00300x    Rx   d 8 FF FE 21 FF FF FF 69 FF 
   0.435789 1  0CEFFF00x    Rx   d 8 64 06 D1 7E 69 86 FF FF 
   0.436068 2  0CF00400x    Rx   d 8 F0 FF 9F 86 25 FF F4 FF 
   0.436101 1  0CF00300x    Rx   d 8 FF FE 21 FF FF FF 69 FF 
   0.436346 2  14FD3E00x    Rx   d 8 DC 38 FF 1C 38 FF FF FF 
   0.436379 1  0CF00400x    Rx   d 8 F0 FF 9F 86 25 FF F4 FF 
   0.436641 2  18EF0600x    Rx   d 8 64 0E 6E 00 FF FF FF FF 
   0.436666 1  14FD3E00x    Rx   d 8 DC 38 FF 1C 38 FF FF FF 
   0.436936 2  18EFFF00x    Rx   d 8 F8 21 04 00 00 00 00 00 
   0.437239 1  18EFFF00x    Rx   d 8 F8 21 04 00 00 00 00 00 
   0.437518 1  14EFFFEBx    Rx   d 8 64 49 31 03 FF FF FF FF 
   0.440549 1  0CFFF331x    Rx   d 8 31 C0 24 FF FF FF FF F8 
   0.440836 2  0CFFF331x    Rx   d 8 31 C0 24 FF FF FF FF F8 
   0.441303 2  198BF2BFx    Rx   d 8 64 10 00 38 00 38 00 38 
   0.441581 2  198BF2BFx    Rx   d 8 64 11 38 38 38 38 80 35 
   0.441860 2  198BF2BFx    Rx   d 8 64 12 59 35 96 35 FF FF 
   0.442376 1  18FFFBEAx    Rx   d 8 FB 0A FF FF FF FF FF FF 
   0.442998 2  18EFFFF2x    Rx   d 8 64 58 FC F4 80 FF C0 24 
   0.443047 1  14FFFA5Bx    Rx   d 8 08 2D 80 25 80 25 FC FF 
   0.443285 2  14FFFA5Bx    Rx   d 8 08 2D 80 25 80 25 FC FF 
   0.443342 1  18FFFA5Bx    Rx   d 8 01 72 FF FF FF FC FF FF 
   0.443629 1  10FF145Bx    Rx   d 8 FF FF FF FF FF FF FF FF 
   0.443924 1  18FFFA5Bx    Rx   d 8 01 73 FF FF FF FC FF FF 
   0.445784 2  0CF00400x    Rx   d 8 F0 FF 9E 92 25 FF F4 FF 
   0.446070 2  0CF02300x    Rx   d 8 00 00 F2 FF FF 70 FF FF 
   0.446087 1  0CF00400x    Rx   d 8 F0 FF 9E 92 25 FF F4 FF 
   0.446373 1  0CF02300x    Rx   d 8 00 00 F2 FF FF 70 FF FF 
   0.449363 1  18FFF831x    Rx   d 8 28 11 FF FF FF FF FF FF 
   0.449683 1  1CFFF831x    Rx   d 8 85 FB FB FF FF FF FF FC 
   0.449970 1  1CFFFA64x    Rx   d 8 00 2D 09 0C FF FF FF FF 
   0.450265 2  1CFFFA64x    Rx   d 8 00 2D 09 0C FF FF FF FF 
   0.450568 1  1CFFFA26x    Rx   d 8 20 20 E8 63 00 7D FF FF 
   0.450863 2  1CFFFA26x    Rx   d 8 20 20 E8 63 00 7D FF FF 
   0.452943 2  0CF0045Bx    Rx   d 8 F0 FF 9E 92 25 FF F4 FF 
   0.452952 1  0CF0045Bx    Rx   d 8 F0 FF 9E 92 25 FF F4 FF 
   0.453238 2  0CFFF606x    Rx   d 8 FF FF FF FF FF FF FF FF 
   0.453246 1  18EFFF06x    Rx   d 8 F8 20 F2 FF FF FF FF FF 
   0.453533 2  18EFFF06x    Rx   d 8 F8 20 F2 FF FF FF FF FF 
   0.454320 1  08FFFBEAx    Rx   d 8 FB 02 00 09 01 FF FF FF 
   0.455139 2  04EF0006x    Rx   d 8 64 15 10 F3 A4 2E C0 12 
   0.455417 2  18EFFF00x    Rx   d 8 64 10 0F 0F DB 09 6D BD 
   0.455532 1  18FFFA26x    Rx   d 8 00 31 00 FD FF FF FF FF 
   0.455704 2  0CEFFF00x    Rx   d 8 64 06 C0 7E 69 85 FF FF 
   0.455811 1  18EFFF00x    Rx   d 8 64 10 0F 0F DB 09 6D BD 
   0.455991 2  0CF00300x    Rx   d 8 FF FE 21 FF FF FF 69 FF 
   0.456097 1  08FFFBEAx    Rx   d 8 FB 02 12 00 FE FF FF FF 
   0.456269 2  0CF00400x    Rx   d 8 F0 FF 9E 9A 25 FF F4 FF 
   0.456384 1  0CEFFF00x    Rx   d 8 64 06 C0 7E 69 85 FF FF 
   0.456564 2  18F00E00x    Rx   d 8 00 FA 00 00 FF FF FF FF 
   0.456671 1  1CFFFAEAx    Rx   d 8 00 2D 08 FF FF FF FF FF 
   0.456966 1  0CF00300x    Rx   d 8 FF FE 21 FF FF FF 69 FF 
   0.456966 2  1CFFFAEAx    Rx   d 8 00 2D 08 FF FF FF FF FF 
   0.457244 1  0CF00400x    Rx   d 8 F0 FF 9E 9A 25 FF F4 FF 
   0.457531 1  18F00E00x    Rx   d 8 00 FA 00 00 FF FF FF FF 
   0.459366 2  08FFFA03x    Rx   d 8 00 23 F3 FF FF FF FF FF 
   0.460406 1  18FFFB86x    Rx   d 8 FB 05 F0 FF FF FF FF FF 
   0.460693 1  0CFF1B31x    Rx   d 8 27 7A C1 00 C0 F9 00 00 
   0.460972 1  18FFF886x    Rx   d 8 9B 00 7D 00 64 80 F0 FF 
   0.460988 2  0CFF1B31x    Rx   d 8 27 7A C1 00 C0 F9 00 00 
   0.461258 1  18FFFF31x    Rx   d 8 09 FF FF FF FF F3 FF FF 
   0.461357 2  1CFFFABFx    Rx   d 8 00 2D 05 FF FF FF FF FF 
   0.461660 1  1CFFFABFx    Rx   d 8 00 2D 05 FF FF FF FF FF 
   0.462331 1  14FFFEEAx    Rx   d 8 47 A4 02 00 00 85 7E FF 
   0.463020 2  10FD925Bx    Rx   d 8 F4 FF FF FF FF FF FF FF 
   0.463028 1  10FD925Bx    Rx   d 8 F4 FF FF FF FF FF FF FF 
   0.465272 2  0CF00400x    Rx   d 8 F0 FF 9D 92 25 FF F4 FF 
   0.465559 1  0CF00400x    Rx   d 8 F0 FF 9D 92 25 FF F4 FF 
   0.465780 2  0CACFF13x    Rx   d 8 32 7D 14 1F C0 FF FF FF 
   0.466067 2  18FFF413x    Rx   d 8 63 FA 01 00 20 E1 FF FF 
   0.466075 1  0CACFF13x    Rx   d 8 32 7D 14 1F C0 FF FF FF 
   0.466362 1  18FFF413x    Rx   d 8 63 FA 01 00 20 E1 FF FF 
   0.467427 1  10FFFDEBx    Rx   d 8 00 05 00 00 00 00 00 FF 
   0.467722 1  10FFFDEBx    Rx   d 8 00 06 FF FF FF FF FF FF 
   0.468721 1  18FFF426x    Rx   d 8 02 00 00 F4 01 FF FF FF 
   0.469032 1  18FFF426x    Rx   d 8 03 00 00 F4 01 FF FF FF 
   0.469344 2  08EFFF03x    Rx   d 8 64 61 41 2F 1F 0F FF FF 
   0.469696 1  18EFFF31x    Rx   d 8 F4 19 FF FF FF FF FF FF 
   0.469983 1  18EFFF26x    Rx   d 8 09 00 00 00 00 00 FF FF 
   0.470261 1  1CFFFAEBx    Rx   d 8 00 2D 0A 19 2A 1F 36 FF 
   0.470548 2  1CFFFAEBx    Rx   d 8 00 2D 0A 19 2A 1F 36 FF 
   0.470818 2  18EFFA13x    Rx   d 8 AD 12 ED D8 ED D8 00 00 
   0.471302 2  198BF2BFx    Rx   d 8 64 10 00 38 00 38 00 38 
   0.471572 2  198BF2BFx    Rx   d 8 64 11 2A 38 2A 38 77 35 
   0.471851 2  198BF2BFx    Rx   d 8 64 12 47 35 89 35 FF FF 
   0.472006 1  1CFFFA79x    Rx   d 8 00 2D 09 09 FF FF FF FF 
   0.472301 2  1CFFFA79x    Rx   d 8 00 2D 09 09 FF FF FF FF 
   0.472367 1  14FFFBEAx    Rx   d 8 F2 1A 3A 00 00 00 FD FF 
   0.472973 2  0CF0045Bx    Rx   d 8 F0 FF 9D 92 25 FF F4 FF 
   0.472981 1  0CF0045Bx    Rx   d 8 F0 FF 9D 92 25 FF F4 FF 
   0.473268 1  0CFF18EBx    Rx   d 8 C0 02 00 05 40 07 03 FF 
   0.473554 1  14FFFA5Bx    Rx   d 8 06 00 6C 07 FF FF FF FF 
   0.474554 2  1CFFFA5Bx    Rx   d 8 00 2D 0C FF FF FF FF FF 
   0.474562 1  1CFFFA5Bx    Rx   d 8 00 2D 0C FF FF FF FF FF 
   0.475152 2  04EF0006x    Rx   d 8 64 15 11 F3 A4 2E C0 12 
   0.475439 2  0CEFFF00x    Rx   d 8 64 06 B6 7E 69 85 FF FF 
   0.475725 2  0CF00300x    Rx   d 8 FF FE 22 FF FF FF 69 FF 
   0.475725 1  0CEFFF00x    Rx   d 8 64 06 B6 7E 69 85 FF FF 
   0.475996 2  0CF00400x    Rx   d 8 F0 FF 9D 8A 25 FF F4 FF 
   0.476020 1  0CF00300x    Rx   d 8 FF FE 22 FF FF FF 69 FF 
   0.476282 2  18F00F00x    Rx   d 8 43 F9 00 00 FF FF FF FF 
   0.476299 1  0CF00400x    Rx   d 8 F0 FF 9D 8A 25 FF F4 FF 
   0.476569 2  18FEEF00x    Rx   d 8 05 FF FF 50 00 FE 1C FA 
   0.476610 1  18F00F00x    Rx   d 8 43 F9 00 00 FF FF FF FF 
   0.476864 2  18FFF413x    Rx   d 8 95 FF FF FF FF FF FF FF 
   0.476897 1  18FEEF00x    Rx   d 8 05 FF FF 50 00 FE 1C FA 
   0.477134 2  18FFF413x    Rx   d 8 5F 40 62 C2 9E 58 4F FF 
   0.477331 1  08EFFFEBx    Rx   d 8 F8 0B DD 00 99 7F F1 00 
   0.477609 1  18FFF413x    Rx   d 8 5F 40 62 C2 9E 58 4F FF 
   0.477626 2  08EFFFEBx    Rx   d 8 F8 0B DD 00 99 7F F1 00 
   0.479354 2  08FEF103x    Rx   d 8 FF 00 00 CF FF FF FF FF 
   0.479641 2  08FFFA03x    Rx   d 8 02 8C 90 25 FF FF FF FF 
   0.479649 1  08FEF103x    Rx   d 8 FF 00 00 CF FF FF FF FF 
   0.479928 1  18EFFF31x    Rx   d 8 F1 07 CC CC 00 00 CC EC 
   0.480206 1  18EFFF31x    Rx   d 8 F0 02 CC 00 30 F0 FF FF 
   0.480559 1  0CFFF331x    Rx   d 8 31 C0 24 FF FF FF FF F8 
   0.480854 2  0CFFF331x    Rx   d 8 31 C0 24 FF FF FF FF F8 
   0.483033 2  18EFFFF2x    Rx   d 8 64 58 FC F4 80 FF C0 24 
   0.483065 1  14EFFF5Bx    Rx   d 8 F4 16 F0 FF FF FF FF FF 
   0.483311 2  14EFFF5Bx    Rx   d 8 64 53 FF FF 40 01 15 F0 
   0.483352 1  14EFFF5Bx    Rx   d 8 64 53 FF FF 40 01 15 F0 
   0.485343 2  0CF00400x    Rx   d 8 F0 FF 9E 86 25 FF F4 FF 
   0.485629 1  0CF00400x    Rx   d 8 F0 FF 9E 86 25 FF F4 FF 
   0.485638 2  18FD9400x    Rx   d 8 58 1D FF FF FF FF FF FF 
   0.485933 1  18FD9400x    Rx   d 8 58 1D FF FF FF FF FF FF 
   0.486219 1  18FFF826x    Rx   d 8 CA FF FF FF FF 1F F0 FC 
   0.490070 1  1CFFFA64x    Rx   d 8 00 2D 0A FF FF FF FF FF 
   0.490373 2  1CFFFA64x    Rx   d 8 00 2D 0A FF FF FF FF FF 
   0.490749 1  10FFFF31x    Rx   d 8 EA FF 7B 61 1F 4E 9F 0F 
   0.491429 1  1CFFFA26x    Rx   d 8 20 20 E8 63 00 7D FF FF 
   0.491716 2  1CFFFA26x    Rx   d 8 20 20 E8 63 00 7D FF FF 
   0.492945 2  0CF0045Bx    Rx   d 8 F0 FF 9E 86 25 FF F4 FF 
   0.492953 1  0CF0045Bx    Rx   d 8 F0 FF 9E 86 25 FF F4 FF 
   0.493240 2  18EFFF06x    Rx   d 8 F8 20 F2 FF FF FF FF FF 
   0.493248 1  18EFFF06x    Rx   d 8 F8 20 F2 FF FF FF FF FF 
   0.493535 1  0CFFEC5Bx    Rx   d 8 FF FF FF FF FF FF FF FF 
   0.493821 1  08FFFA5Bx    Rx   d 8 00 22 09 F3 EE 0A 0C FF 
   0.494321 1  08FFFBEAx    Rx   d 8 FB 02 00 08 01 FF FF FF 
   0.495165 2  04EF0006x    Rx   d 8 64 15 12 F3 95 2E C0 12 
   0.495812 2  0CEFFF00x    Rx   d 8 64 06 C3 7E 69 86 FF FF 
   0.496099 2  0CF00300x    Rx   d 8 FF FE 22 FF FF FF 69 FF 
   0.496107 1  0CEFFF00x    Rx   d 8 64 06 C3 7E 69 86 FF FF 
   0.496377 2  0CF00400x    Rx   d 8 F0 FF 9E 7C 25 FF F4 FF 
   0.496394 1  0CF00300x    Rx   d 8 FF FE 22 FF FF FF 69 FF 
   0.496664 2  0CF02300x    Rx   d 8 00 00 F2 FF FF 70 FF FF 
   0.496672 1  0CF00400x    Rx   d 8 F0 FF 9E 7C 25 FF F4 FF 
   0.496951 2  1CFFFA00x    Rx   d 8 00 50 29 0F 7F 76 FF FF 
   0.496959 1  0CF02300x    Rx   d 8 00 00 F2 FF FF 70 FF FF 
   0.497500 1  0CEFFFEBx    Rx   d 8 F2 25 00 FF FF FF FF FF 
   0.497778 1  14EFFFEBx    Rx   d 8 64 4A 52 02 85 89 FF FF 
   0.498065 1  08EFFFEBx    Rx   d 8 64 48 FF FF FF FD FF FF 
   0.499580 1  18EFFF31x    Rx   d 8 F0 0E 88 88 88 88 88 88 
   0.500613 1  18FFFF31x    Rx   d 8 87 FF 00 FF FF FF FF FF 
   0.501350 2  1CFFFABFx    Rx   d 8 00 2D 06 FF FF FF FF FF 
